#   Hz   S  RI   R   50
!
1.000000e+11 3.178682e-02 -4.310288e-02 -4.639526e-01 -8.088608e-01 -4.639526e-01 -8.088608e-01 3.178682e-02 -4.310288e-02
1.001000e+11 3.162497e-02 -4.306829e-02 -4.655792e-01 -8.078694e-01 -4.655792e-01 -8.078694e-01 3.162497e-02 -4.306829e-02
1.002000e+11 3.146336e-02 -4.303299e-02 -4.672037e-01 -8.068754e-01 -4.672037e-01 -8.068754e-01 3.146336e-02 -4.303299e-02
1.003000e+11 3.130197e-02 -4.299700e-02 -4.688260e-01 -8.058788e-01 -4.688260e-01 -8.058788e-01 3.130197e-02 -4.299700e-02
1.004000e+11 3.114082e-02 -4.296032e-02 -4.704463e-01 -8.048796e-01 -4.704463e-01 -8.048796e-01 3.114082e-02 -4.296032e-02
1.005000e+11 3.097992e-02 -4.292295e-02 -4.720645e-01 -8.038778e-01 -4.720645e-01 -8.038778e-01 3.097992e-02 -4.292295e-02
1.006000e+11 3.081925e-02 -4.288490e-02 -4.736806e-01 -8.028734e-01 -4.736806e-01 -8.028734e-01 3.081925e-02 -4.288490e-02
1.007000e+11 3.065883e-02 -4.284616e-02 -4.752946e-01 -8.018664e-01 -4.752946e-01 -8.018664e-01 3.065883e-02 -4.284616e-02
1.008000e+11 3.049866e-02 -4.280675e-02 -4.769065e-01 -8.008568e-01 -4.769065e-01 -8.008568e-01 3.049866e-02 -4.280675e-02
1.009000e+11 3.033874e-02 -4.276665e-02 -4.785164e-01 -7.998445e-01 -4.785164e-01 -7.998445e-01 3.033874e-02 -4.276665e-02
1.010000e+11 3.017907e-02 -4.272589e-02 -4.801243e-01 -7.988297e-01 -4.801243e-01 -7.988297e-01 3.017907e-02 -4.272589e-02
1.011000e+11 3.001966e-02 -4.268445e-02 -4.817301e-01 -7.978122e-01 -4.817301e-01 -7.978122e-01 3.001966e-02 -4.268445e-02
1.012000e+11 2.986052e-02 -4.264235e-02 -4.833338e-01 -7.967921e-01 -4.833338e-01 -7.967921e-01 2.986052e-02 -4.264235e-02
1.013000e+11 2.970163e-02 -4.259958e-02 -4.849355e-01 -7.957693e-01 -4.849355e-01 -7.957693e-01 2.970163e-02 -4.259958e-02
1.014000e+11 2.954302e-02 -4.255616e-02 -4.865352e-01 -7.947439e-01 -4.865352e-01 -7.947439e-01 2.954302e-02 -4.255616e-02
1.015000e+11 2.938467e-02 -4.251208e-02 -4.881329e-01 -7.937159e-01 -4.881329e-01 -7.937159e-01 2.938467e-02 -4.251208e-02
1.016000e+11 2.922659e-02 -4.246734e-02 -4.897286e-01 -7.926852e-01 -4.897286e-01 -7.926852e-01 2.922659e-02 -4.246734e-02
1.017000e+11 2.906879e-02 -4.242195e-02 -4.913222e-01 -7.916519e-01 -4.913222e-01 -7.916519e-01 2.906879e-02 -4.242195e-02
1.018000e+11 2.891126e-02 -4.237592e-02 -4.929138e-01 -7.906159e-01 -4.929138e-01 -7.906159e-01 2.891126e-02 -4.237592e-02
1.019000e+11 2.875402e-02 -4.232924e-02 -4.945034e-01 -7.895772e-01 -4.945034e-01 -7.895772e-01 2.875402e-02 -4.232924e-02
1.020000e+11 2.859705e-02 -4.228192e-02 -4.960911e-01 -7.885359e-01 -4.960911e-01 -7.885359e-01 2.859705e-02 -4.228192e-02
1.021000e+11 2.844037e-02 -4.223396e-02 -4.976767e-01 -7.874919e-01 -4.976767e-01 -7.874919e-01 2.844037e-02 -4.223396e-02
1.022000e+11 2.828398e-02 -4.218536e-02 -4.992603e-01 -7.864452e-01 -4.992603e-01 -7.864452e-01 2.828398e-02 -4.218536e-02
1.023000e+11 2.812788e-02 -4.213613e-02 -5.008419e-01 -7.853958e-01 -5.008419e-01 -7.853958e-01 2.812788e-02 -4.213613e-02
1.024000e+11 2.797208e-02 -4.208627e-02 -5.024216e-01 -7.843437e-01 -5.024216e-01 -7.843437e-01 2.797208e-02 -4.208627e-02
1.025000e+11 2.781656e-02 -4.203579e-02 -5.039993e-01 -7.832889e-01 -5.039993e-01 -7.832889e-01 2.781656e-02 -4.203579e-02
1.026000e+11 2.766135e-02 -4.198468e-02 -5.055749e-01 -7.822314e-01 -5.055749e-01 -7.822314e-01 2.766135e-02 -4.198468e-02
1.027000e+11 2.750643e-02 -4.193295e-02 -5.071486e-01 -7.811712e-01 -5.071486e-01 -7.811712e-01 2.750643e-02 -4.193295e-02
1.028000e+11 2.735182e-02 -4.188060e-02 -5.087204e-01 -7.801082e-01 -5.087204e-01 -7.801082e-01 2.735182e-02 -4.188060e-02
1.029000e+11 2.719751e-02 -4.182764e-02 -5.102901e-01 -7.790426e-01 -5.102901e-01 -7.790426e-01 2.719751e-02 -4.182764e-02
1.030000e+11 2.704351e-02 -4.177407e-02 -5.118579e-01 -7.779742e-01 -5.118579e-01 -7.779742e-01 2.704351e-02 -4.177407e-02
1.031000e+11 2.688981e-02 -4.171989e-02 -5.134237e-01 -7.769031e-01 -5.134237e-01 -7.769031e-01 2.688981e-02 -4.171989e-02
1.032000e+11 2.673643e-02 -4.166510e-02 -5.149875e-01 -7.758292e-01 -5.149875e-01 -7.758292e-01 2.673643e-02 -4.166510e-02
1.033000e+11 2.658336e-02 -4.160971e-02 -5.165493e-01 -7.747526e-01 -5.165493e-01 -7.747526e-01 2.658336e-02 -4.160971e-02
1.034000e+11 2.643061e-02 -4.155372e-02 -5.181092e-01 -7.736732e-01 -5.181092e-01 -7.736732e-01 2.643061e-02 -4.155372e-02
1.035000e+11 2.627818e-02 -4.149713e-02 -5.196671e-01 -7.725911e-01 -5.196671e-01 -7.725911e-01 2.627818e-02 -4.149713e-02
1.036000e+11 2.612606e-02 -4.143995e-02 -5.212230e-01 -7.715062e-01 -5.212230e-01 -7.715062e-01 2.612606e-02 -4.143995e-02
1.037000e+11 2.597427e-02 -4.138218e-02 -5.227769e-01 -7.704185e-01 -5.227769e-01 -7.704185e-01 2.597427e-02 -4.138218e-02
1.038000e+11 2.582280e-02 -4.132382e-02 -5.243289e-01 -7.693280e-01 -5.243289e-01 -7.693280e-01 2.582280e-02 -4.132382e-02
1.039000e+11 2.567166e-02 -4.126487e-02 -5.258788e-01 -7.682348e-01 -5.258788e-01 -7.682348e-01 2.567166e-02 -4.126487e-02
1.040000e+11 2.552085e-02 -4.120534e-02 -5.274268e-01 -7.671387e-01 -5.274268e-01 -7.671387e-01 2.552085e-02 -4.120534e-02
1.041000e+11 2.537036e-02 -4.114523e-02 -5.289729e-01 -7.660399e-01 -5.289729e-01 -7.660399e-01 2.537036e-02 -4.114523e-02
1.042000e+11 2.522021e-02 -4.108454e-02 -5.305169e-01 -7.649383e-01 -5.305169e-01 -7.649383e-01 2.522021e-02 -4.108454e-02
1.043000e+11 2.507040e-02 -4.102327e-02 -5.320590e-01 -7.638339e-01 -5.320590e-01 -7.638339e-01 2.507040e-02 -4.102327e-02
1.044000e+11 2.492091e-02 -4.096144e-02 -5.335990e-01 -7.627266e-01 -5.335990e-01 -7.627266e-01 2.492091e-02 -4.096144e-02
1.045000e+11 2.477177e-02 -4.089903e-02 -5.351371e-01 -7.616165e-01 -5.351371e-01 -7.616165e-01 2.477177e-02 -4.089903e-02
1.046000e+11 2.462297e-02 -4.083606e-02 -5.366732e-01 -7.605036e-01 -5.366732e-01 -7.605036e-01 2.462297e-02 -4.083606e-02
1.047000e+11 2.447451e-02 -4.077253e-02 -5.382073e-01 -7.593879e-01 -5.382073e-01 -7.593879e-01 2.447451e-02 -4.077253e-02
1.048000e+11 2.432639e-02 -4.070844e-02 -5.397394e-01 -7.582694e-01 -5.397394e-01 -7.582694e-01 2.432639e-02 -4.070844e-02
1.049000e+11 2.417861e-02 -4.064378e-02 -5.412695e-01 -7.571480e-01 -5.412695e-01 -7.571480e-01 2.417861e-02 -4.064378e-02
1.050000e+11 2.403119e-02 -4.057857e-02 -5.427975e-01 -7.560237e-01 -5.427975e-01 -7.560237e-01 2.403119e-02 -4.057857e-02
1.051000e+11 2.388411e-02 -4.051281e-02 -5.443236e-01 -7.548966e-01 -5.443236e-01 -7.548966e-01 2.388411e-02 -4.051281e-02
1.052000e+11 2.373738e-02 -4.044650e-02 -5.458477e-01 -7.537667e-01 -5.458477e-01 -7.537667e-01 2.373738e-02 -4.044650e-02
1.053000e+11 2.359101e-02 -4.037964e-02 -5.473697e-01 -7.526339e-01 -5.473697e-01 -7.526339e-01 2.359101e-02 -4.037964e-02
1.054000e+11 2.344499e-02 -4.031224e-02 -5.488898e-01 -7.514982e-01 -5.488898e-01 -7.514982e-01 2.344499e-02 -4.031224e-02
1.055000e+11 2.329932e-02 -4.024429e-02 -5.504078e-01 -7.503596e-01 -5.504078e-01 -7.503596e-01 2.329932e-02 -4.024429e-02
1.056000e+11 2.315401e-02 -4.017581e-02 -5.519237e-01 -7.492182e-01 -5.519237e-01 -7.492182e-01 2.315401e-02 -4.017581e-02
1.057000e+11 2.300906e-02 -4.010679e-02 -5.534377e-01 -7.480739e-01 -5.534377e-01 -7.480739e-01 2.300906e-02 -4.010679e-02
1.058000e+11 2.286448e-02 -4.003723e-02 -5.549496e-01 -7.469267e-01 -5.549496e-01 -7.469267e-01 2.286448e-02 -4.003723e-02
1.059000e+11 2.272025e-02 -3.996714e-02 -5.564594e-01 -7.457766e-01 -5.564594e-01 -7.457766e-01 2.272025e-02 -3.996714e-02
1.060000e+11 2.257639e-02 -3.989653e-02 -5.579673e-01 -7.446236e-01 -5.579673e-01 -7.446236e-01 2.257639e-02 -3.989653e-02
1.061000e+11 2.243289e-02 -3.982538e-02 -5.594730e-01 -7.434678e-01 -5.594730e-01 -7.434678e-01 2.243289e-02 -3.982538e-02
1.062000e+11 2.228976e-02 -3.975372e-02 -5.609767e-01 -7.423090e-01 -5.609767e-01 -7.423090e-01 2.228976e-02 -3.975372e-02
1.063000e+11 2.214699e-02 -3.968153e-02 -5.624783e-01 -7.411473e-01 -5.624783e-01 -7.411473e-01 2.214699e-02 -3.968153e-02
1.064000e+11 2.200460e-02 -3.960882e-02 -5.639779e-01 -7.399827e-01 -5.639779e-01 -7.399827e-01 2.200460e-02 -3.960882e-02
1.065000e+11 2.186258e-02 -3.953560e-02 -5.654753e-01 -7.388152e-01 -5.654753e-01 -7.388152e-01 2.186258e-02 -3.953560e-02
1.066000e+11 2.172093e-02 -3.946186e-02 -5.669707e-01 -7.376448e-01 -5.669707e-01 -7.376448e-01 2.172093e-02 -3.946186e-02
1.067000e+11 2.157965e-02 -3.938762e-02 -5.684640e-01 -7.364714e-01 -5.684640e-01 -7.364714e-01 2.157965e-02 -3.938762e-02
1.068000e+11 2.143875e-02 -3.931286e-02 -5.699552e-01 -7.352952e-01 -5.699552e-01 -7.352952e-01 2.143875e-02 -3.931286e-02
1.069000e+11 2.129822e-02 -3.923760e-02 -5.714443e-01 -7.341160e-01 -5.714443e-01 -7.341160e-01 2.129822e-02 -3.923760e-02
1.070000e+11 2.115808e-02 -3.916183e-02 -5.729313e-01 -7.329338e-01 -5.729313e-01 -7.329338e-01 2.115808e-02 -3.916183e-02
1.071000e+11 2.101831e-02 -3.908556e-02 -5.744162e-01 -7.317488e-01 -5.744162e-01 -7.317488e-01 2.101831e-02 -3.908556e-02
1.072000e+11 2.087893e-02 -3.900880e-02 -5.758989e-01 -7.305607e-01 -5.758989e-01 -7.305607e-01 2.087893e-02 -3.900880e-02
1.073000e+11 2.073992e-02 -3.893154e-02 -5.773795e-01 -7.293698e-01 -5.773795e-01 -7.293698e-01 2.073992e-02 -3.893154e-02
1.074000e+11 2.060130e-02 -3.885378e-02 -5.788580e-01 -7.281759e-01 -5.788580e-01 -7.281759e-01 2.060130e-02 -3.885378e-02
1.075000e+11 2.046307e-02 -3.877553e-02 -5.803343e-01 -7.269790e-01 -5.803343e-01 -7.269790e-01 2.046307e-02 -3.877553e-02
1.076000e+11 2.032522e-02 -3.869680e-02 -5.818085e-01 -7.257793e-01 -5.818085e-01 -7.257793e-01 2.032522e-02 -3.869680e-02
1.077000e+11 2.018776e-02 -3.861758e-02 -5.832805e-01 -7.245765e-01 -5.832805e-01 -7.245765e-01 2.018776e-02 -3.861758e-02
1.078000e+11 2.005068e-02 -3.853787e-02 -5.847503e-01 -7.233708e-01 -5.847503e-01 -7.233708e-01 2.005068e-02 -3.853787e-02
1.079000e+11 1.991400e-02 -3.845768e-02 -5.862180e-01 -7.221621e-01 -5.862180e-01 -7.221621e-01 1.991400e-02 -3.845768e-02
1.080000e+11 1.977771e-02 -3.837702e-02 -5.876834e-01 -7.209505e-01 -5.876834e-01 -7.209505e-01 1.977771e-02 -3.837702e-02
1.081000e+11 1.964181e-02 -3.829587e-02 -5.891467e-01 -7.197359e-01 -5.891467e-01 -7.197359e-01 1.964181e-02 -3.829587e-02
1.082000e+11 1.950630e-02 -3.821426e-02 -5.906078e-01 -7.185184e-01 -5.906078e-01 -7.185184e-01 1.950630e-02 -3.821426e-02
1.083000e+11 1.937119e-02 -3.813217e-02 -5.920666e-01 -7.172979e-01 -5.920666e-01 -7.172979e-01 1.937119e-02 -3.813217e-02
1.084000e+11 1.923647e-02 -3.804961e-02 -5.935233e-01 -7.160744e-01 -5.935233e-01 -7.160744e-01 1.923647e-02 -3.804961e-02
1.085000e+11 1.910215e-02 -3.796658e-02 -5.949777e-01 -7.148480e-01 -5.949777e-01 -7.148480e-01 1.910215e-02 -3.796658e-02
1.086000e+11 1.896823e-02 -3.788309e-02 -5.964298e-01 -7.136185e-01 -5.964298e-01 -7.136185e-01 1.896823e-02 -3.788309e-02
1.087000e+11 1.883470e-02 -3.779914e-02 -5.978798e-01 -7.123862e-01 -5.978798e-01 -7.123862e-01 1.883470e-02 -3.779914e-02
1.088000e+11 1.870158e-02 -3.771472e-02 -5.993274e-01 -7.111508e-01 -5.993274e-01 -7.111508e-01 1.870158e-02 -3.771472e-02
1.089000e+11 1.856886e-02 -3.762985e-02 -6.007728e-01 -7.099125e-01 -6.007728e-01 -7.099125e-01 1.856886e-02 -3.762985e-02
1.090000e+11 1.843654e-02 -3.754452e-02 -6.022160e-01 -7.086711e-01 -6.022160e-01 -7.086711e-01 1.843654e-02 -3.754452e-02
1.091000e+11 1.830463e-02 -3.745874e-02 -6.036568e-01 -7.074269e-01 -6.036568e-01 -7.074269e-01 1.830463e-02 -3.745874e-02
1.092000e+11 1.817311e-02 -3.737251e-02 -6.050954e-01 -7.061796e-01 -6.050954e-01 -7.061796e-01 1.817311e-02 -3.737251e-02
1.093000e+11 1.804201e-02 -3.728583e-02 -6.065317e-01 -7.049294e-01 -6.065317e-01 -7.049294e-01 1.804201e-02 -3.728583e-02
1.094000e+11 1.791131e-02 -3.719870e-02 -6.079657e-01 -7.036761e-01 -6.079657e-01 -7.036761e-01 1.791131e-02 -3.719870e-02
1.095000e+11 1.778102e-02 -3.711113e-02 -6.093973e-01 -7.024200e-01 -6.093973e-01 -7.024200e-01 1.778102e-02 -3.711113e-02
1.096000e+11 1.765113e-02 -3.702312e-02 -6.108266e-01 -7.011608e-01 -6.108266e-01 -7.011608e-01 1.765113e-02 -3.702312e-02
1.097000e+11 1.752166e-02 -3.693467e-02 -6.122536e-01 -6.998986e-01 -6.122536e-01 -6.998986e-01 1.752166e-02 -3.693467e-02
1.098000e+11 1.739260e-02 -3.684578e-02 -6.136782e-01 -6.986335e-01 -6.136782e-01 -6.986335e-01 1.739260e-02 -3.684578e-02
1.099000e+11 1.726395e-02 -3.675645e-02 -6.151005e-01 -6.973654e-01 -6.151005e-01 -6.973654e-01 1.726395e-02 -3.675645e-02
1.100000e+11 1.713571e-02 -3.666670e-02 -6.165205e-01 -6.960943e-01 -6.165205e-01 -6.960943e-01 1.713571e-02 -3.666670e-02
1.101000e+11 1.700788e-02 -3.657651e-02 -6.179380e-01 -6.948203e-01 -6.179380e-01 -6.948203e-01 1.700788e-02 -3.657651e-02
1.102000e+11 1.688047e-02 -3.648589e-02 -6.193532e-01 -6.935432e-01 -6.193532e-01 -6.935432e-01 1.688047e-02 -3.648589e-02
1.103000e+11 1.675347e-02 -3.639485e-02 -6.207659e-01 -6.922632e-01 -6.207659e-01 -6.922632e-01 1.675347e-02 -3.639485e-02
1.104000e+11 1.662689e-02 -3.630338e-02 -6.221763e-01 -6.909803e-01 -6.221763e-01 -6.909803e-01 1.662689e-02 -3.630338e-02
1.105000e+11 1.650073e-02 -3.621149e-02 -6.235843e-01 -6.896943e-01 -6.235843e-01 -6.896943e-01 1.650073e-02 -3.621149e-02
1.106000e+11 1.637498e-02 -3.611919e-02 -6.249898e-01 -6.884054e-01 -6.249898e-01 -6.884054e-01 1.637498e-02 -3.611919e-02
1.107000e+11 1.624965e-02 -3.602646e-02 -6.263929e-01 -6.871135e-01 -6.263929e-01 -6.871135e-01 1.624965e-02 -3.602646e-02
1.108000e+11 1.612475e-02 -3.593332e-02 -6.277936e-01 -6.858186e-01 -6.277936e-01 -6.858186e-01 1.612475e-02 -3.593332e-02
1.109000e+11 1.600026e-02 -3.583977e-02 -6.291918e-01 -6.845208e-01 -6.291918e-01 -6.845208e-01 1.600026e-02 -3.583977e-02
1.110000e+11 1.587619e-02 -3.574580e-02 -6.305875e-01 -6.832200e-01 -6.305875e-01 -6.832200e-01 1.587619e-02 -3.574580e-02
1.111000e+11 1.575255e-02 -3.565143e-02 -6.319808e-01 -6.819162e-01 -6.319808e-01 -6.819162e-01 1.575255e-02 -3.565143e-02
1.112000e+11 1.562933e-02 -3.555665e-02 -6.333716e-01 -6.806095e-01 -6.333716e-01 -6.806095e-01 1.562933e-02 -3.555665e-02
1.113000e+11 1.550653e-02 -3.546147e-02 -6.347599e-01 -6.792998e-01 -6.347599e-01 -6.792998e-01 1.550653e-02 -3.546147e-02
1.114000e+11 1.538416e-02 -3.536588e-02 -6.361457e-01 -6.779871e-01 -6.361457e-01 -6.779871e-01 1.538416e-02 -3.536588e-02
1.115000e+11 1.526221e-02 -3.526990e-02 -6.375290e-01 -6.766715e-01 -6.375290e-01 -6.766715e-01 1.526221e-02 -3.526990e-02
1.116000e+11 1.514069e-02 -3.517352e-02 -6.389098e-01 -6.753530e-01 -6.389098e-01 -6.753530e-01 1.514069e-02 -3.517352e-02
1.117000e+11 1.501960e-02 -3.507674e-02 -6.402880e-01 -6.740314e-01 -6.402880e-01 -6.740314e-01 1.501960e-02 -3.507674e-02
1.118000e+11 1.489893e-02 -3.497956e-02 -6.416637e-01 -6.727070e-01 -6.416637e-01 -6.727070e-01 1.489893e-02 -3.497956e-02
1.119000e+11 1.477869e-02 -3.488200e-02 -6.430369e-01 -6.713796e-01 -6.430369e-01 -6.713796e-01 1.477869e-02 -3.488200e-02
1.120000e+11 1.465889e-02 -3.478404e-02 -6.444075e-01 -6.700492e-01 -6.444075e-01 -6.700492e-01 1.465889e-02 -3.478404e-02
1.121000e+11 1.453951e-02 -3.468570e-02 -6.457755e-01 -6.687159e-01 -6.457755e-01 -6.687159e-01 1.453951e-02 -3.468570e-02
1.122000e+11 1.442056e-02 -3.458698e-02 -6.471410e-01 -6.673797e-01 -6.471410e-01 -6.673797e-01 1.442056e-02 -3.458698e-02
1.123000e+11 1.430204e-02 -3.448787e-02 -6.485038e-01 -6.660405e-01 -6.485038e-01 -6.660405e-01 1.430204e-02 -3.448787e-02
1.124000e+11 1.418396e-02 -3.438838e-02 -6.498641e-01 -6.646984e-01 -6.498641e-01 -6.646984e-01 1.418396e-02 -3.438838e-02
1.125000e+11 1.406630e-02 -3.428851e-02 -6.512217e-01 -6.633534e-01 -6.512217e-01 -6.633534e-01 1.406630e-02 -3.428851e-02
1.126000e+11 1.394909e-02 -3.418826e-02 -6.525767e-01 -6.620054e-01 -6.525767e-01 -6.620054e-01 1.394909e-02 -3.418826e-02
1.127000e+11 1.383230e-02 -3.408764e-02 -6.539291e-01 -6.606545e-01 -6.539291e-01 -6.606545e-01 1.383230e-02 -3.408764e-02
1.128000e+11 1.371595e-02 -3.398664e-02 -6.552789e-01 -6.593007e-01 -6.552789e-01 -6.593007e-01 1.371595e-02 -3.398664e-02
1.129000e+11 1.360004e-02 -3.388528e-02 -6.566260e-01 -6.579440e-01 -6.566260e-01 -6.579440e-01 1.360004e-02 -3.388528e-02
1.130000e+11 1.348456e-02 -3.378354e-02 -6.579704e-01 -6.565844e-01 -6.579704e-01 -6.565844e-01 1.348456e-02 -3.378354e-02
1.131000e+11 1.336952e-02 -3.368144e-02 -6.593122e-01 -6.552219e-01 -6.593122e-01 -6.552219e-01 1.336952e-02 -3.368144e-02
1.132000e+11 1.325492e-02 -3.357897e-02 -6.606512e-01 -6.538564e-01 -6.606512e-01 -6.538564e-01 1.325492e-02 -3.357897e-02
1.133000e+11 1.314075e-02 -3.347614e-02 -6.619876e-01 -6.524881e-01 -6.619876e-01 -6.524881e-01 1.314075e-02 -3.347614e-02
1.134000e+11 1.302702e-02 -3.337295e-02 -6.633213e-01 -6.511169e-01 -6.633213e-01 -6.511169e-01 1.302702e-02 -3.337295e-02
1.135000e+11 1.291374e-02 -3.326941e-02 -6.646523e-01 -6.497428e-01 -6.646523e-01 -6.497428e-01 1.291374e-02 -3.326941e-02
1.136000e+11 1.280089e-02 -3.316550e-02 -6.659806e-01 -6.483658e-01 -6.659806e-01 -6.483658e-01 1.280089e-02 -3.316550e-02
1.137000e+11 1.268848e-02 -3.306124e-02 -6.673061e-01 -6.469859e-01 -6.673061e-01 -6.469859e-01 1.268848e-02 -3.306124e-02
1.138000e+11 1.257652e-02 -3.295663e-02 -6.686289e-01 -6.456031e-01 -6.686289e-01 -6.456031e-01 1.257652e-02 -3.295663e-02
1.139000e+11 1.246500e-02 -3.285167e-02 -6.699490e-01 -6.442175e-01 -6.699490e-01 -6.442175e-01 1.246500e-02 -3.285167e-02
1.140000e+11 1.235391e-02 -3.274635e-02 -6.712663e-01 -6.428290e-01 -6.712663e-01 -6.428290e-01 1.235391e-02 -3.274635e-02
1.141000e+11 1.224328e-02 -3.264069e-02 -6.725808e-01 -6.414376e-01 -6.725808e-01 -6.414376e-01 1.224328e-02 -3.264069e-02
1.142000e+11 1.213308e-02 -3.253469e-02 -6.738925e-01 -6.400434e-01 -6.738925e-01 -6.400434e-01 1.213308e-02 -3.253469e-02
1.143000e+11 1.202333e-02 -3.242834e-02 -6.752015e-01 -6.386464e-01 -6.752015e-01 -6.386464e-01 1.202333e-02 -3.242834e-02
1.144000e+11 1.191403e-02 -3.232166e-02 -6.765076e-01 -6.372465e-01 -6.765076e-01 -6.372465e-01 1.191403e-02 -3.232166e-02
1.145000e+11 1.180517e-02 -3.221463e-02 -6.778110e-01 -6.358437e-01 -6.778110e-01 -6.358437e-01 1.180517e-02 -3.221463e-02
1.146000e+11 1.169675e-02 -3.210727e-02 -6.791115e-01 -6.344381e-01 -6.791115e-01 -6.344381e-01 1.169675e-02 -3.210727e-02
1.147000e+11 1.158878e-02 -3.199957e-02 -6.804092e-01 -6.330297e-01 -6.804092e-01 -6.330297e-01 1.158878e-02 -3.199957e-02
1.148000e+11 1.148126e-02 -3.189154e-02 -6.817041e-01 -6.316185e-01 -6.817041e-01 -6.316185e-01 1.148126e-02 -3.189154e-02
1.149000e+11 1.137419e-02 -3.178318e-02 -6.829961e-01 -6.302044e-01 -6.829961e-01 -6.302044e-01 1.137419e-02 -3.178318e-02
1.150000e+11 1.126756e-02 -3.167449e-02 -6.842852e-01 -6.287875e-01 -6.842852e-01 -6.287875e-01 1.126756e-02 -3.167449e-02
1.151000e+11 1.116139e-02 -3.156547e-02 -6.855715e-01 -6.273679e-01 -6.855715e-01 -6.273679e-01 1.116139e-02 -3.156547e-02
1.152000e+11 1.105566e-02 -3.145612e-02 -6.868550e-01 -6.259454e-01 -6.868550e-01 -6.259454e-01 1.105566e-02 -3.145612e-02
1.153000e+11 1.095038e-02 -3.134646e-02 -6.881355e-01 -6.245201e-01 -6.881355e-01 -6.245201e-01 1.095038e-02 -3.134646e-02
1.154000e+11 1.084555e-02 -3.123647e-02 -6.894132e-01 -6.230920e-01 -6.894132e-01 -6.230920e-01 1.084555e-02 -3.123647e-02
1.155000e+11 1.074118e-02 -3.112616e-02 -6.906879e-01 -6.216612e-01 -6.906879e-01 -6.216612e-01 1.074118e-02 -3.112616e-02
1.156000e+11 1.063725e-02 -3.101553e-02 -6.919597e-01 -6.202276e-01 -6.919597e-01 -6.202276e-01 1.063725e-02 -3.101553e-02
1.157000e+11 1.053377e-02 -3.090459e-02 -6.932287e-01 -6.187912e-01 -6.932287e-01 -6.187912e-01 1.053377e-02 -3.090459e-02
1.158000e+11 1.043075e-02 -3.079334e-02 -6.944946e-01 -6.173520e-01 -6.944946e-01 -6.173520e-01 1.043075e-02 -3.079334e-02
1.159000e+11 1.032818e-02 -3.068177e-02 -6.957577e-01 -6.159101e-01 -6.957577e-01 -6.159101e-01 1.032818e-02 -3.068177e-02
1.160000e+11 1.022606e-02 -3.056989e-02 -6.970178e-01 -6.144655e-01 -6.970178e-01 -6.144655e-01 1.022606e-02 -3.056989e-02
1.161000e+11 1.012440e-02 -3.045770e-02 -6.982749e-01 -6.130180e-01 -6.982749e-01 -6.130180e-01 1.012440e-02 -3.045770e-02
