#   Hz   S  RI   R   50
!
1.000000e+09 -9.919711e-01 1.327983e-02
2.000000e+09 -9.919838e-01 2.680042e-02
3.000000e+09 -9.917412e-01 4.069148e-02
4.000000e+09 -9.909628e-01 5.490747e-02
5.000000e+09 -9.894328e-01 6.923268e-02
6.000000e+09 -9.870872e-01 8.334739e-02
7.000000e+09 -9.840479e-01 9.692748e-02
8.000000e+09 -9.806001e-01 1.097459e-01
9.000000e+09 -9.771212e-01 1.217485e-01
1.000000e+10 -9.739772e-01 1.330839e-01
1.100000e+10 -9.714148e-01 1.440742e-01
1.200000e+10 -9.694810e-01 1.551292e-01
1.300000e+10 -9.680020e-01 1.666255e-01
1.400000e+10 -9.666333e-01 1.787903e-01
1.500000e+10 -9.649683e-01 1.916326e-01
1.600000e+10 -9.626672e-01 2.049472e-01
1.700000e+10 -9.595581e-01 2.183886e-01
1.800000e+10 -9.556804e-01 2.315842e-01
1.900000e+10 -9.512606e-01 2.442496e-01
2.000000e+10 -9.466332e-01 2.562694e-01
2.100000e+10 -9.421348e-01 2.677238e-01
2.200000e+10 -9.380014e-01 2.788565e-01
2.300000e+10 -9.342992e-01 2.899940e-01
2.400000e+10 -9.309105e-01 3.014413e-01
2.500000e+10 -9.275769e-01 3.133873e-01
2.600000e+10 -9.239869e-01 3.258509e-01
2.700000e+10 -9.198772e-01 3.386842e-01
2.800000e+10 -9.151113e-01 3.516301e-01
2.900000e+10 -9.097130e-01 3.644106e-01
3.000000e+10 -9.038461e-01 3.768149e-01
3.100000e+10 -8.977519e-01 3.887596e-01
3.200000e+10 -8.916677e-01 4.003049e-01
3.300000e+10 -8.857518e-01 4.116245e-01
3.400000e+10 -8.800392e-01 4.229427e-01
3.500000e+10 -8.744383e-01 4.344586e-01
3.600000e+10 -8.687698e-01 4.462838e-01
3.700000e+10 -8.628310e-01 4.584128e-01
3.800000e+10 -8.564638e-01 4.707352e-01
3.900000e+10 -8.496014e-01 4.830816e-01
4.000000e+10 -8.422807e-01 4.952861e-01
4.100000e+10 -8.346172e-01 5.072410e-01
4.200000e+10 -8.267562e-01 5.189271e-01
4.300000e+10 -8.188177e-01 5.304101e-01
4.400000e+10 -8.108549e-01 5.418078e-01
4.500000e+10 -8.028400e-01 5.532405e-01
4.600000e+10 -7.946815e-01 5.647850e-01
4.700000e+10 -7.862637e-01 5.764473e-01
4.800000e+10 -7.774943e-01 5.881650e-01
4.900000e+10 -7.683395e-01 5.998371e-01
5.000000e+10 -7.588344e-01 6.113690e-01
5.100000e+10 -7.490637e-01 6.227138e-01
5.200000e+10 -7.391212e-01 6.338936e-01
5.300000e+10 -7.290630e-01 6.449922e-01
5.400000e+10 -7.188754e-01 6.561193e-01
5.500000e+10 -7.084691e-01 6.673613e-01
5.600000e+10 -6.977063e-01 6.787366e-01
5.700000e+10 -6.864507e-01 6.901738e-01
5.800000e+10 -6.746252e-01 7.015254e-01
5.900000e+10 -6.622518e-01 7.126154e-01
6.000000e+10 -6.494580e-01 7.233051e-01
6.100000e+10 -6.364404e-01 7.335556e-01
6.200000e+10 -6.233955e-01 7.434598e-01
6.300000e+10 -6.104376e-01 7.532288e-01
6.400000e+10 -5.975353e-01 7.631306e-01
6.500000e+10 -5.844902e-01 7.733970e-01
6.600000e+10 -5.709737e-01 7.841268e-01
6.700000e+10 -5.566177e-01 7.952216e-01
6.800000e+10 -5.411344e-01 8.063802e-01
6.900000e+10 -5.244286e-01 8.171654e-01
7.000000e+10 -5.066602e-01 8.271312e-01
7.100000e+10 -4.882253e-01 8.359759e-01
7.200000e+10 -4.696491e-01 8.436719e-01
7.300000e+10 -4.514100e-01 8.505226e-01
7.400000e+10 -4.337428e-01 8.571123e-01
7.500000e+10 -4.164823e-01 8.641475e-01
7.600000e+10 -3.990054e-01 8.722153e-01
7.700000e+10 -3.803110e-01 8.815225e-01
7.800000e+10 -3.592401e-01 8.916877e-01
7.900000e+10 -3.348011e-01 9.016618e-01
8.000000e+10 -3.065246e-01 9.098241e-01
8.100000e+10 -2.747537e-01 9.142611e-01
8.200000e+10 -2.407798e-01 9.131822e-01
8.300000e+10 -2.067622e-01 9.053855e-01
8.400000e+10 -1.754211e-01 8.906604e-01
8.500000e+10 -1.495523e-01 8.700205e-01
8.600000e+10 -1.314568e-01 8.456918e-01
8.700000e+10 -1.224111e-01 8.208329e-01
8.800000e+10 -1.223003e-01 7.990259e-01
8.900000e+10 -1.295119e-01 7.836325e-01
9.000000e+10 -1.411339e-01 7.771476e-01
9.100000e+10 -1.534336e-01 7.806965e-01
9.200000e+10 -1.625241e-01 7.937947e-01
9.300000e+10 -1.650758e-01 8.144347e-01
9.400000e+10 -1.589139e-01 8.394868e-01
9.500000e+10 -1.433664e-01 8.653236e-01
9.600000e+10 -1.192898e-01 8.885241e-01
9.700000e+10 -8.877696e-02 9.064994e-01
9.800000e+10 -5.462537e-02 9.179044e-01
9.900000e+10 -1.969614e-02 9.227538e-01
1.000000e+11 1.368696e-02 9.222361e-01
1.010000e+11 4.416507e-02 9.182834e-01
1.020000e+11 7.151072e-02 9.130123e-01
1.030000e+11 9.651060e-02 9.081770e-01
1.040000e+11 1.206121e-01 9.047655e-01
1.050000e+11 1.454385e-01 9.028306e-01
1.060000e+11 1.723062e-01 9.015814e-01
1.070000e+11 2.018706e-01 8.996920e-01
1.080000e+11 2.339844e-01 8.957288e-01
1.090000e+11 2.677917e-01 8.885731e-01
1.100000e+11 3.020156e-01 8.777222e-01
1.110000e+11 3.353473e-01 8.633954e-01
1.120000e+11 3.668232e-01 8.464244e-01
1.130000e+11 3.960833e-01 8.279705e-01
1.140000e+11 4.234421e-01 8.091549e-01
1.150000e+11 4.497575e-01 7.907119e-01
1.160000e+11 4.761412e-01 7.727658e-01
1.170000e+11 5.035990e-01 7.547930e-01
1.180000e+11 5.327084e-01 7.357770e-01
1.190000e+11 5.634267e-01 7.145059e-01
1.200000e+11 5.950838e-01 6.899234e-01
1.210000e+11 6.265583e-01 6.614293e-01
1.220000e+11 6.565827e-01 6.290422e-01
1.230000e+11 6.840879e-01 5.933771e-01
1.240000e+11 7.084836e-01 5.554462e-01
1.250000e+11 7.297926e-01 5.163397e-01
1.260000e+11 7.485946e-01 4.768815e-01
1.270000e+11 7.657935e-01 4.373634e-01
1.280000e+11 7.822747e-01 3.974404e-01
1.290000e+11 7.985497e-01 3.562243e-01
1.300000e+11 8.144967e-01 3.125542e-01
1.310000e+11 8.292747e-01 2.653733e-01
1.320000e+11 8.414463e-01 2.141066e-01
1.330000e+11 8.492830e-01 1.589331e-01
1.340000e+11 8.511772e-01 1.008718e-01
1.350000e+11 8.460552e-01 4.164867e-02
1.360000e+11 8.336779e-01 -1.663097e-02
1.370000e+11 8.147469e-01 -7.192454e-02
1.380000e+11 7.907796e-01 -1.226993e-01
1.390000e+11 7.637786e-01 -1.682676e-01
1.400000e+11 7.357766e-01 -2.089231e-01
1.410000e+11 7.083696e-01 -2.458420e-01
1.420000e+11 6.823540e-01 -2.807748e-01
1.430000e+11 6.575527e-01 -3.156058e-01
1.440000e+11 6.328678e-01 -3.518886e-01
1.450000e+11 6.065368e-01 -3.904659e-01
1.460000e+11 5.765264e-01 -4.312543e-01
1.470000e+11 5.409654e-01 -4.732320e-01
1.480000e+11 4.985224e-01 -5.146153e-01
1.490000e+11 4.486508e-01 -5.531673e-01
1.500000e+11 3.916693e-01 -5.865572e-01
1.510000e+11 3.286865e-01 -6.126889e-01
1.520000e+11 2.614163e-01 -6.299394e-01
1.530000e+11 1.919493e-01 -6.372832e-01
1.540000e+11 1.225385e-01 -6.343171e-01
1.550000e+11 5.543349e-02 -6.212248e-01
1.560000e+11 -7.233944e-03 -5.987262e-01
1.570000e+11 -6.353921e-02 -5.680427e-01
1.580000e+11 -1.118664e-01 -5.308791e-01
1.590000e+11 -1.510498e-01 -4.893944e-01
1.600000e+11 -1.805574e-01 -4.461158e-01
1.610000e+11 -2.006796e-01 -4.037519e-01
1.620000e+11 -2.126608e-01 -3.648871e-01
1.630000e+11 -2.186976e-01 -3.315806e-01
1.640000e+11 -2.217421e-01 -3.049395e-01
1.650000e+11 -2.250904e-01 -2.847697e-01
1.660000e+11 -2.317933e-01 -2.694186e-01
1.670000e+11 -2.439861e-01 -2.559020e-01
1.680000e+11 -2.622838e-01 -2.403566e-01
1.690000e+11 -2.854068e-01 -2.187790e-01
1.700000e+11 -3.101754e-01 -1.879273e-01
1.710000e+11 -3.319442e-01 -1.461931e-01
1.720000e+11 -3.454398e-01 -9.422347e-02
1.730000e+11 -3.458537e-01 -3.510534e-02
1.740000e+11 -3.299578e-01 2.598435e-02
1.750000e+11 -2.969796e-01 8.263418e-02
1.760000e+11 -2.490148e-01 1.284039e-01
1.770000e+11 -1.908496e-01 1.581337e-01
1.780000e+11 -1.291939e-01 1.690749e-01
1.790000e+11 -7.145137e-02 1.615847e-01
1.800000e+11 -2.426402e-02 1.392063e-01
1.810000e+11 7.872182e-03 1.080731e-01
1.820000e+11 2.360933e-02 7.571998e-02
1.830000e+11 2.511633e-02 4.952369e-02
1.840000e+11 1.768762e-02 3.510468e-02
1.850000e+11 8.639411e-03 3.505878e-02
1.860000e+11 5.721239e-03 4.832971e-02
1.870000e+11 1.540166e-02 7.038685e-02
1.880000e+11 4.142502e-02 9.417553e-02
1.890000e+11 8.396828e-02 1.116191e-01
1.900000e+11 1.395773e-01 1.153269e-01
1.910000e+11 2.018782e-01 1.001285e-01
1.920000e+11 2.628894e-01 6.410673e-02
1.930000e+11 3.146368e-01 8.922312e-03
1.940000e+11 3.507202e-01 -6.062327e-02
1.950000e+11 3.674895e-01 -1.376752e-01
1.960000e+11 3.645800e-01 -2.148094e-01
1.970000e+11 3.446969e-01 -2.855662e-01
1.980000e+11 3.127194e-01 -3.456727e-01
1.990000e+11 2.743650e-01 -3.936710e-01
2.000000e+11 2.347586e-01 -4.308218e-01
2.010000e+11 1.972713e-01 -4.603458e-01
2.020000e+11 1.629075e-01 -4.862303e-01
2.030000e+11 1.303642e-01 -5.119345e-01
2.040000e+11 9.671067e-02 -5.393312e-01
2.050000e+11 5.847644e-02 -5.681492e-01
2.060000e+11 1.284655e-02 -5.960391e-01
2.070000e+11 -4.135770e-02 -6.192232e-01
2.080000e+11 -1.031685e-01 -6.335390e-01
2.090000e+11 -1.695595e-01 -6.355864e-01
2.100000e+11 -2.360978e-01 -6.236629e-01
2.110000e+11 -2.979700e-01 -5.982346e-01
2.120000e+11 -3.510924e-01 -5.618232e-01
2.130000e+11 -3.929981e-01 -5.183537e-01
2.140000e+11 -4.232629e-01 -4.721588e-01
2.150000e+11 -4.433675e-01 -4.269217e-01
2.160000e+11 -4.560497e-01 -3.848516e-01
2.170000e+11 -4.643381e-01 -3.463111e-01
2.180000e+11 -4.705385e-01 -3.099924e-01
2.190000e+11 -4.754574e-01 -2.735901e-01
2.200000e+11 -4.780799e-01 -2.347856e-01
2.210000e+11 -4.758034e-01 -1.922713e-01
2.220000e+11 -4.651755e-01 -1.465281e-01
2.230000e+11 -4.429486e-01 -1.001316e-01
2.240000e+11 -4.071746e-01 -5.748716e-02
2.250000e+11 -3.580510e-01 -2.404483e-02
2.260000e+11 -2.982958e-01 -5.180522e-03
2.270000e+11 -2.329500e-01 -5.010588e-03
2.280000e+11 -1.686446e-01 -2.541658e-02
2.290000e+11 -1.124953e-01 -6.550137e-02
2.300000e+11 -7.086149e-02 -1.215960e-01
2.310000e+11 -4.823324e-02 -1.878155e-01
2.320000e+11 -4.647683e-02 -2.570451e-01
2.330000e+11 -6.459112e-02 -3.221494e-01
2.340000e+11 -9.901591e-02 -3.771487e-01
2.350000e+11 -1.444107e-01 -4.181191e-01
2.360000e+11 -1.947180e-01 -4.436390e-01
2.370000e+11 -2.442655e-01 -4.547174e-01
2.380000e+11 -2.886696e-01 -4.542670e-01
2.390000e+11 -3.253682e-01 -4.462845e-01
2.400000e+11 -3.537215e-01 -4.349555e-01
2.410000e+11 -3.747281e-01 -4.238846e-01
2.420000e+11 -3.904889e-01 -4.155917e-01
2.430000e+11 -4.035832e-01 -4.113236e-01
2.440000e+11 -4.165079e-01 -4.111491e-01
2.450000e+11 -4.312833e-01 -4.142440e-01
2.460000e+11 -4.492599e-01 -4.192521e-01
2.470000e+11 -4.711064e-01 -4.246194e-01
2.480000e+11 -4.969135e-01 -4.288352e-01
2.490000e+11 -5.263391e-01 -4.305624e-01
2.500000e+11 -5.587321e-01 -4.286813e-01
2.510000e+11 -5.932054e-01 -4.222941e-01
2.520000e+11 -6.286658e-01 -4.107397e-01
2.530000e+11 -6.638360e-01 -3.936451e-01
2.540000e+11 -6.973109e-01 -3.710074e-01
2.550000e+11 -7.276766e-01 -3.432722e-01
2.560000e+11 -7.536904e-01 -3.113592e-01
2.570000e+11 -7.744851e-01 -2.765910e-01
2.580000e+11 -7.897374e-01 -2.405149e-01
2.590000e+11 -7.997376e-01 -2.046396e-01
2.600000e+11 -8.053165e-01 -1.701518e-01
2.610000e+11 -8.076299e-01 -1.376932e-01
2.620000e+11 -8.078460e-01 -1.072720e-01
2.630000e+11 -8.068194e-01 -7.835088e-02
2.640000e+11 -8.048499e-01 -5.009822e-02
2.650000e+11 -8.016072e-01 -2.174055e-02
2.660000e+11 -7.962564e-01 7.087746e-03
2.670000e+11 -7.877619e-01 3.610642e-02
2.680000e+11 -7.752862e-01 6.434801e-02
2.690000e+11 -7.585660e-01 9.034309e-02
2.700000e+11 -7.381422e-01 1.124938e-01
2.710000e+11 -7.153583e-01 1.295342e-01
2.720000e+11 -6.921038e-01 1.409401e-01
2.730000e+11 -6.703586e-01 1.471544e-01
2.740000e+11 -6.516628e-01 1.495389e-01
2.750000e+11 -6.366660e-01 1.500427e-01
2.760000e+11 -6.249027e-01 1.506590e-01
2.770000e+11 -6.148831e-01 1.528139e-01
2.780000e+11 -6.045035e-01 1.568631e-01
2.790000e+11 -5.916878e-01 1.618553e-01
2.800000e+11 -5.750960e-01 1.656567e-01
