#   Hz   S  RI   R   50
!
1.000000e+11 3.228663e-02 -4.295496e-02 -4.636895e-01 -8.093036e-01 -4.636895e-01 -8.093036e-01 3.228663e-02 -4.295496e-02
1.001000e+11 3.212468e-02 -4.293014e-02 -4.653314e-01 -8.083154e-01 -4.653314e-01 -8.083154e-01 3.212468e-02 -4.293014e-02
1.002000e+11 3.196279e-02 -4.290454e-02 -4.669711e-01 -8.073243e-01 -4.669711e-01 -8.073243e-01 3.196279e-02 -4.290454e-02
1.003000e+11 3.180097e-02 -4.287815e-02 -4.686087e-01 -8.063301e-01 -4.686087e-01 -8.063301e-01 3.180097e-02 -4.287815e-02
1.004000e+11 3.163922e-02 -4.285099e-02 -4.702440e-01 -8.053330e-01 -4.702440e-01 -8.053330e-01 3.163922e-02 -4.285099e-02
1.005000e+11 3.147755e-02 -4.282305e-02 -4.718771e-01 -8.043329e-01 -4.718771e-01 -8.043329e-01 3.147755e-02 -4.282305e-02
1.006000e+11 3.131597e-02 -4.279433e-02 -4.735080e-01 -8.033298e-01 -4.735080e-01 -8.033298e-01 3.131597e-02 -4.279433e-02
1.007000e+11 3.115449e-02 -4.276484e-02 -4.751367e-01 -8.023238e-01 -4.751367e-01 -8.023238e-01 3.115449e-02 -4.276484e-02
1.008000e+11 3.099310e-02 -4.273458e-02 -4.767632e-01 -8.013147e-01 -4.767632e-01 -8.013147e-01 3.099310e-02 -4.273458e-02
1.009000e+11 3.083182e-02 -4.270354e-02 -4.783875e-01 -8.003028e-01 -4.783875e-01 -8.003028e-01 3.083182e-02 -4.270354e-02
1.010000e+11 3.067066e-02 -4.267174e-02 -4.800096e-01 -7.992878e-01 -4.800096e-01 -7.992878e-01 3.067066e-02 -4.267174e-02
1.011000e+11 3.050960e-02 -4.263917e-02 -4.816296e-01 -7.982699e-01 -4.816296e-01 -7.982699e-01 3.050960e-02 -4.263917e-02
1.012000e+11 3.034868e-02 -4.260583e-02 -4.832473e-01 -7.972490e-01 -4.832473e-01 -7.972490e-01 3.034868e-02 -4.260583e-02
1.013000e+11 3.018788e-02 -4.257173e-02 -4.848629e-01 -7.962252e-01 -4.848629e-01 -7.962252e-01 3.018788e-02 -4.257173e-02
1.014000e+11 3.002722e-02 -4.253686e-02 -4.864762e-01 -7.951984e-01 -4.864762e-01 -7.951984e-01 3.002722e-02 -4.253686e-02
1.015000e+11 2.986670e-02 -4.250124e-02 -4.880874e-01 -7.941686e-01 -4.880874e-01 -7.941686e-01 2.986670e-02 -4.250124e-02
1.016000e+11 2.970632e-02 -4.246486e-02 -4.896963e-01 -7.931359e-01 -4.896963e-01 -7.931359e-01 2.970632e-02 -4.246486e-02
1.017000e+11 2.954610e-02 -4.242772e-02 -4.913031e-01 -7.921003e-01 -4.913031e-01 -7.921003e-01 2.954610e-02 -4.242772e-02
1.018000e+11 2.938604e-02 -4.238983e-02 -4.929077e-01 -7.910617e-01 -4.929077e-01 -7.910617e-01 2.938604e-02 -4.238983e-02
1.019000e+11 2.922614e-02 -4.235119e-02 -4.945101e-01 -7.900201e-01 -4.945101e-01 -7.900201e-01 2.922614e-02 -4.235119e-02
1.020000e+11 2.906641e-02 -4.231180e-02 -4.961103e-01 -7.889756e-01 -4.961103e-01 -7.889756e-01 2.906641e-02 -4.231180e-02
1.021000e+11 2.890685e-02 -4.227166e-02 -4.977083e-01 -7.879282e-01 -4.977083e-01 -7.879282e-01 2.890685e-02 -4.227166e-02
1.022000e+11 2.874747e-02 -4.223078e-02 -4.993041e-01 -7.868778e-01 -4.993041e-01 -7.868778e-01 2.874747e-02 -4.223078e-02
1.023000e+11 2.858828e-02 -4.218915e-02 -5.008978e-01 -7.858245e-01 -5.008978e-01 -7.858245e-01 2.858828e-02 -4.218915e-02
1.024000e+11 2.842928e-02 -4.214679e-02 -5.024892e-01 -7.847682e-01 -5.024892e-01 -7.847682e-01 2.842928e-02 -4.214679e-02
1.025000e+11 2.827047e-02 -4.210369e-02 -5.040784e-01 -7.837090e-01 -5.040784e-01 -7.837090e-01 2.827047e-02 -4.210369e-02
1.026000e+11 2.811187e-02 -4.205985e-02 -5.056655e-01 -7.826469e-01 -5.056655e-01 -7.826469e-01 2.811187e-02 -4.205985e-02
1.027000e+11 2.795347e-02 -4.201528e-02 -5.072504e-01 -7.815818e-01 -5.072504e-01 -7.815818e-01 2.795347e-02 -4.201528e-02
1.028000e+11 2.779528e-02 -4.196998e-02 -5.088330e-01 -7.805138e-01 -5.088330e-01 -7.805138e-01 2.779528e-02 -4.196998e-02
1.029000e+11 2.763731e-02 -4.192395e-02 -5.104135e-01 -7.794428e-01 -5.104135e-01 -7.794428e-01 2.763731e-02 -4.192395e-02
1.030000e+11 2.747956e-02 -4.187720e-02 -5.119918e-01 -7.783689e-01 -5.119918e-01 -7.783689e-01 2.747956e-02 -4.187720e-02
1.031000e+11 2.732203e-02 -4.182973e-02 -5.135678e-01 -7.772921e-01 -5.135678e-01 -7.772921e-01 2.732203e-02 -4.182973e-02
1.032000e+11 2.716474e-02 -4.178154e-02 -5.151417e-01 -7.762123e-01 -5.151417e-01 -7.762123e-01 2.716474e-02 -4.178154e-02
1.033000e+11 2.700768e-02 -4.173263e-02 -5.167134e-01 -7.751296e-01 -5.167134e-01 -7.751296e-01 2.700768e-02 -4.173263e-02
1.034000e+11 2.685086e-02 -4.168301e-02 -5.182829e-01 -7.740440e-01 -5.182829e-01 -7.740440e-01 2.685086e-02 -4.168301e-02
1.035000e+11 2.669429e-02 -4.163267e-02 -5.198502e-01 -7.729554e-01 -5.198502e-01 -7.729554e-01 2.669429e-02 -4.163267e-02
1.036000e+11 2.653796e-02 -4.158163e-02 -5.214152e-01 -7.718639e-01 -5.214152e-01 -7.718639e-01 2.653796e-02 -4.158163e-02
1.037000e+11 2.638189e-02 -4.152988e-02 -5.229781e-01 -7.707695e-01 -5.229781e-01 -7.707695e-01 2.638189e-02 -4.152988e-02
1.038000e+11 2.622608e-02 -4.147743e-02 -5.245387e-01 -7.696721e-01 -5.245387e-01 -7.696721e-01 2.622608e-02 -4.147743e-02
1.039000e+11 2.607053e-02 -4.142428e-02 -5.260972e-01 -7.685719e-01 -5.260972e-01 -7.685719e-01 2.607053e-02 -4.142428e-02
1.040000e+11 2.591525e-02 -4.137043e-02 -5.276534e-01 -7.674686e-01 -5.276534e-01 -7.674686e-01 2.591525e-02 -4.137043e-02
1.041000e+11 2.576024e-02 -4.131589e-02 -5.292074e-01 -7.663625e-01 -5.292074e-01 -7.663625e-01 2.576024e-02 -4.131589e-02
1.042000e+11 2.560550e-02 -4.126065e-02 -5.307593e-01 -7.652534e-01 -5.307593e-01 -7.652534e-01 2.560550e-02 -4.126065e-02
1.043000e+11 2.545105e-02 -4.120473e-02 -5.323088e-01 -7.641414e-01 -5.323088e-01 -7.641414e-01 2.545105e-02 -4.120473e-02
1.044000e+11 2.529688e-02 -4.114813e-02 -5.338562e-01 -7.630265e-01 -5.338562e-01 -7.630265e-01 2.529688e-02 -4.114813e-02
1.045000e+11 2.514300e-02 -4.109084e-02 -5.354013e-01 -7.619087e-01 -5.354013e-01 -7.619087e-01 2.514300e-02 -4.109084e-02
1.046000e+11 2.498941e-02 -4.103287e-02 -5.369443e-01 -7.607879e-01 -5.369443e-01 -7.607879e-01 2.498941e-02 -4.103287e-02
1.047000e+11 2.483611e-02 -4.097422e-02 -5.384849e-01 -7.596642e-01 -5.384849e-01 -7.596642e-01 2.483611e-02 -4.097422e-02
1.048000e+11 2.468312e-02 -4.091491e-02 -5.400234e-01 -7.585376e-01 -5.400234e-01 -7.585376e-01 2.468312e-02 -4.091491e-02
1.049000e+11 2.453044e-02 -4.085492e-02 -5.415596e-01 -7.574080e-01 -5.415596e-01 -7.574080e-01 2.453044e-02 -4.085492e-02
1.050000e+11 2.437806e-02 -4.079426e-02 -5.430936e-01 -7.562755e-01 -5.430936e-01 -7.562755e-01 2.437806e-02 -4.079426e-02
1.051000e+11 2.422599e-02 -4.073294e-02 -5.446253e-01 -7.551401e-01 -5.446253e-01 -7.551401e-01 2.422599e-02 -4.073294e-02
1.052000e+11 2.407424e-02 -4.067096e-02 -5.461548e-01 -7.540018e-01 -5.461548e-01 -7.540018e-01 2.407424e-02 -4.067096e-02
1.053000e+11 2.392281e-02 -4.060833e-02 -5.476821e-01 -7.528606e-01 -5.476821e-01 -7.528606e-01 2.392281e-02 -4.060833e-02
1.054000e+11 2.377171e-02 -4.054503e-02 -5.492071e-01 -7.517164e-01 -5.492071e-01 -7.517164e-01 2.377171e-02 -4.054503e-02
1.055000e+11 2.362093e-02 -4.048109e-02 -5.507299e-01 -7.505693e-01 -5.507299e-01 -7.505693e-01 2.362093e-02 -4.048109e-02
1.056000e+11 2.347048e-02 -4.041650e-02 -5.522503e-01 -7.494193e-01 -5.522503e-01 -7.494193e-01 2.347048e-02 -4.041650e-02
1.057000e+11 2.332037e-02 -4.035126e-02 -5.537686e-01 -7.482664e-01 -5.537686e-01 -7.482664e-01 2.332037e-02 -4.035126e-02
1.058000e+11 2.317059e-02 -4.028538e-02 -5.552845e-01 -7.471105e-01 -5.552845e-01 -7.471105e-01 2.317059e-02 -4.028538e-02
1.059000e+11 2.302115e-02 -4.021887e-02 -5.567982e-01 -7.459517e-01 -5.567982e-01 -7.459517e-01 2.302115e-02 -4.021887e-02
1.060000e+11 2.287206e-02 -4.015171e-02 -5.583097e-01 -7.447900e-01 -5.583097e-01 -7.447900e-01 2.287206e-02 -4.015171e-02
1.061000e+11 2.272332e-02 -4.008393e-02 -5.598188e-01 -7.436254e-01 -5.598188e-01 -7.436254e-01 2.272332e-02 -4.008393e-02
1.062000e+11 2.257493e-02 -4.001552e-02 -5.613257e-01 -7.424579e-01 -5.613257e-01 -7.424579e-01 2.257493e-02 -4.001552e-02
1.063000e+11 2.242689e-02 -3.994648e-02 -5.628303e-01 -7.412874e-01 -5.628303e-01 -7.412874e-01 2.242689e-02 -3.994648e-02
1.064000e+11 2.227921e-02 -3.987682e-02 -5.643326e-01 -7.401141e-01 -5.643326e-01 -7.401141e-01 2.227921e-02 -3.987682e-02
1.065000e+11 2.213189e-02 -3.980653e-02 -5.658326e-01 -7.389378e-01 -5.658326e-01 -7.389378e-01 2.213189e-02 -3.980653e-02
1.066000e+11 2.198494e-02 -3.973564e-02 -5.673303e-01 -7.377586e-01 -5.673303e-01 -7.377586e-01 2.198494e-02 -3.973564e-02
1.067000e+11 2.183835e-02 -3.966413e-02 -5.688257e-01 -7.365765e-01 -5.688257e-01 -7.365765e-01 2.183835e-02 -3.966413e-02
1.068000e+11 2.169213e-02 -3.959201e-02 -5.703188e-01 -7.353914e-01 -5.703188e-01 -7.353914e-01 2.169213e-02 -3.959201e-02
1.069000e+11 2.154629e-02 -3.951929e-02 -5.718096e-01 -7.342035e-01 -5.718096e-01 -7.342035e-01 2.154629e-02 -3.951929e-02
1.070000e+11 2.140082e-02 -3.944596e-02 -5.732980e-01 -7.330126e-01 -5.732980e-01 -7.330126e-01 2.140082e-02 -3.944596e-02
1.071000e+11 2.125573e-02 -3.937203e-02 -5.747842e-01 -7.318189e-01 -5.747842e-01 -7.318189e-01 2.125573e-02 -3.937203e-02
1.072000e+11 2.111102e-02 -3.929751e-02 -5.762680e-01 -7.306222e-01 -5.762680e-01 -7.306222e-01 2.111102e-02 -3.929751e-02
1.073000e+11 2.096670e-02 -3.922239e-02 -5.777495e-01 -7.294226e-01 -5.777495e-01 -7.294226e-01 2.096670e-02 -3.922239e-02
1.074000e+11 2.082276e-02 -3.914669e-02 -5.792287e-01 -7.282201e-01 -5.792287e-01 -7.282201e-01 2.082276e-02 -3.914669e-02
1.075000e+11 2.067921e-02 -3.907040e-02 -5.807055e-01 -7.270147e-01 -5.807055e-01 -7.270147e-01 2.067921e-02 -3.907040e-02
1.076000e+11 2.053606e-02 -3.899352e-02 -5.821800e-01 -7.258063e-01 -5.821800e-01 -7.258063e-01 2.053606e-02 -3.899352e-02
1.077000e+11 2.039330e-02 -3.891607e-02 -5.836521e-01 -7.245951e-01 -5.836521e-01 -7.245951e-01 2.039330e-02 -3.891607e-02
1.078000e+11 2.025094e-02 -3.883804e-02 -5.851218e-01 -7.233810e-01 -5.851218e-01 -7.233810e-01 2.025094e-02 -3.883804e-02
1.079000e+11 2.010897e-02 -3.875944e-02 -5.865893e-01 -7.221639e-01 -5.865893e-01 -7.221639e-01 2.010897e-02 -3.875944e-02
1.080000e+11 1.996741e-02 -3.868026e-02 -5.880543e-01 -7.209440e-01 -5.880543e-01 -7.209440e-01 1.996741e-02 -3.868026e-02
1.081000e+11 1.982626e-02 -3.860053e-02 -5.895170e-01 -7.197211e-01 -5.895170e-01 -7.197211e-01 1.982626e-02 -3.860053e-02
1.082000e+11 1.968551e-02 -3.852022e-02 -5.909772e-01 -7.184954e-01 -5.909772e-01 -7.184954e-01 1.968551e-02 -3.852022e-02
1.083000e+11 1.954518e-02 -3.843936e-02 -5.924352e-01 -7.172667e-01 -5.924352e-01 -7.172667e-01 1.954518e-02 -3.843936e-02
1.084000e+11 1.940525e-02 -3.835795e-02 -5.938907e-01 -7.160352e-01 -5.938907e-01 -7.160352e-01 1.940525e-02 -3.835795e-02
1.085000e+11 1.926574e-02 -3.827598e-02 -5.953438e-01 -7.148007e-01 -5.953438e-01 -7.148007e-01 1.926574e-02 -3.827598e-02
1.086000e+11 1.912665e-02 -3.819346e-02 -5.967945e-01 -7.135634e-01 -5.967945e-01 -7.135634e-01 1.912665e-02 -3.819346e-02
1.087000e+11 1.898798e-02 -3.811039e-02 -5.982428e-01 -7.123232e-01 -5.982428e-01 -7.123232e-01 1.898798e-02 -3.811039e-02
1.088000e+11 1.884973e-02 -3.802678e-02 -5.996887e-01 -7.110800e-01 -5.996887e-01 -7.110800e-01 1.884973e-02 -3.802678e-02
1.089000e+11 1.871190e-02 -3.794263e-02 -6.011322e-01 -7.098340e-01 -6.011322e-01 -7.098340e-01 1.871190e-02 -3.794263e-02
1.090000e+11 1.857449e-02 -3.785795e-02 -6.025733e-01 -7.085851e-01 -6.025733e-01 -7.085851e-01 1.857449e-02 -3.785795e-02
1.091000e+11 1.843752e-02 -3.777273e-02 -6.040119e-01 -7.073333e-01 -6.040119e-01 -7.073333e-01 1.843752e-02 -3.777273e-02
1.092000e+11 1.830097e-02 -3.768698e-02 -6.054481e-01 -7.060786e-01 -6.054481e-01 -7.060786e-01 1.830097e-02 -3.768698e-02
1.093000e+11 1.816486e-02 -3.760071e-02 -6.068819e-01 -7.048210e-01 -6.068819e-01 -7.048210e-01 1.816486e-02 -3.760071e-02
1.094000e+11 1.802918e-02 -3.751391e-02 -6.083132e-01 -7.035606e-01 -6.083132e-01 -7.035606e-01 1.802918e-02 -3.751391e-02
1.095000e+11 1.789393e-02 -3.742659e-02 -6.097420e-01 -7.022972e-01 -6.097420e-01 -7.022972e-01 1.789393e-02 -3.742659e-02
1.096000e+11 1.775912e-02 -3.733876e-02 -6.111684e-01 -7.010310e-01 -6.111684e-01 -7.010310e-01 1.775912e-02 -3.733876e-02
1.097000e+11 1.762475e-02 -3.725041e-02 -6.125923e-01 -6.997619e-01 -6.125923e-01 -6.997619e-01 1.762475e-02 -3.725041e-02
1.098000e+11 1.749083e-02 -3.716156e-02 -6.140138e-01 -6.984899e-01 -6.140138e-01 -6.984899e-01 1.749083e-02 -3.716156e-02
1.099000e+11 1.735734e-02 -3.707219e-02 -6.154328e-01 -6.972151e-01 -6.154328e-01 -6.972151e-01 1.735734e-02 -3.707219e-02
1.100000e+11 1.722430e-02 -3.698233e-02 -6.168492e-01 -6.959374e-01 -6.168492e-01 -6.959374e-01 1.722430e-02 -3.698233e-02
1.101000e+11 1.709170e-02 -3.689196e-02 -6.182632e-01 -6.946568e-01 -6.182632e-01 -6.946568e-01 1.709170e-02 -3.689196e-02
1.102000e+11 1.695956e-02 -3.680109e-02 -6.196747e-01 -6.933733e-01 -6.196747e-01 -6.933733e-01 1.695956e-02 -3.680109e-02
1.103000e+11 1.682786e-02 -3.670974e-02 -6.210837e-01 -6.920870e-01 -6.210837e-01 -6.920870e-01 1.682786e-02 -3.670974e-02
1.104000e+11 1.669662e-02 -3.661789e-02 -6.224902e-01 -6.907978e-01 -6.224902e-01 -6.907978e-01 1.669662e-02 -3.661789e-02
1.105000e+11 1.656582e-02 -3.652555e-02 -6.238941e-01 -6.895057e-01 -6.238941e-01 -6.895057e-01 1.656582e-02 -3.652555e-02
1.106000e+11 1.643548e-02 -3.643273e-02 -6.252955e-01 -6.882108e-01 -6.252955e-01 -6.882108e-01 1.643548e-02 -3.643273e-02
1.107000e+11 1.630560e-02 -3.633943e-02 -6.266944e-01 -6.869131e-01 -6.266944e-01 -6.869131e-01 1.630560e-02 -3.633943e-02
1.108000e+11 1.617618e-02 -3.624565e-02 -6.280908e-01 -6.856124e-01 -6.280908e-01 -6.856124e-01 1.617618e-02 -3.624565e-02
1.109000e+11 1.604721e-02 -3.615140e-02 -6.294846e-01 -6.843090e-01 -6.294846e-01 -6.843090e-01 1.604721e-02 -3.615140e-02
1.110000e+11 1.591870e-02 -3.605668e-02 -6.308758e-01 -6.830026e-01 -6.308758e-01 -6.830026e-01 1.591870e-02 -3.605668e-02
1.111000e+11 1.579066e-02 -3.596149e-02 -6.322645e-01 -6.816935e-01 -6.322645e-01 -6.816935e-01 1.579066e-02 -3.596149e-02
1.112000e+11 1.566308e-02 -3.586583e-02 -6.336506e-01 -6.803815e-01 -6.336506e-01 -6.803815e-01 1.566308e-02 -3.586583e-02
1.113000e+11 1.553596e-02 -3.576972e-02 -6.350342e-01 -6.790666e-01 -6.350342e-01 -6.790666e-01 1.553596e-02 -3.576972e-02
1.114000e+11 1.540931e-02 -3.567314e-02 -6.364151e-01 -6.777489e-01 -6.364151e-01 -6.777489e-01 1.540931e-02 -3.567314e-02
1.115000e+11 1.528312e-02 -3.557611e-02 -6.377935e-01 -6.764284e-01 -6.377935e-01 -6.764284e-01 1.528312e-02 -3.557611e-02
1.116000e+11 1.515741e-02 -3.547863e-02 -6.391693e-01 -6.751050e-01 -6.391693e-01 -6.751050e-01 1.515741e-02 -3.547863e-02
1.117000e+11 1.503216e-02 -3.538069e-02 -6.405424e-01 -6.737789e-01 -6.405424e-01 -6.737789e-01 1.503216e-02 -3.538069e-02
1.118000e+11 1.490739e-02 -3.528232e-02 -6.419130e-01 -6.724499e-01 -6.419130e-01 -6.724499e-01 1.490739e-02 -3.528232e-02
1.119000e+11 1.478308e-02 -3.518350e-02 -6.432810e-01 -6.711180e-01 -6.432810e-01 -6.711180e-01 1.478308e-02 -3.518350e-02
1.120000e+11 1.465925e-02 -3.508424e-02 -6.446463e-01 -6.697834e-01 -6.446463e-01 -6.697834e-01 1.465925e-02 -3.508424e-02
1.121000e+11 1.453589e-02 -3.498454e-02 -6.460090e-01 -6.684459e-01 -6.460090e-01 -6.684459e-01 1.453589e-02 -3.498454e-02
1.122000e+11 1.441301e-02 -3.488441e-02 -6.473690e-01 -6.671056e-01 -6.473690e-01 -6.671056e-01 1.441301e-02 -3.488441e-02
1.123000e+11 1.429061e-02 -3.478385e-02 -6.487264e-01 -6.657625e-01 -6.487264e-01 -6.657625e-01 1.429061e-02 -3.478385e-02
1.124000e+11 1.416868e-02 -3.468286e-02 -6.500812e-01 -6.644166e-01 -6.500812e-01 -6.644166e-01 1.416868e-02 -3.468286e-02
1.125000e+11 1.404723e-02 -3.458145e-02 -6.514333e-01 -6.630679e-01 -6.514333e-01 -6.630679e-01 1.404723e-02 -3.458145e-02
1.126000e+11 1.392626e-02 -3.447962e-02 -6.527827e-01 -6.617164e-01 -6.527827e-01 -6.617164e-01 1.392626e-02 -3.447962e-02
1.127000e+11 1.380577e-02 -3.437737e-02 -6.541295e-01 -6.603621e-01 -6.541295e-01 -6.603621e-01 1.380577e-02 -3.437737e-02
1.128000e+11 1.368576e-02 -3.427470e-02 -6.554736e-01 -6.590051e-01 -6.554736e-01 -6.590051e-01 1.368576e-02 -3.427470e-02
1.129000e+11 1.356623e-02 -3.417162e-02 -6.568149e-01 -6.576452e-01 -6.568149e-01 -6.576452e-01 1.356623e-02 -3.417162e-02
1.130000e+11 1.344719e-02 -3.406814e-02 -6.581536e-01 -6.562825e-01 -6.581536e-01 -6.562825e-01 1.344719e-02 -3.406814e-02
1.131000e+11 1.332863e-02 -3.396424e-02 -6.594896e-01 -6.549171e-01 -6.594896e-01 -6.549171e-01 1.332863e-02 -3.396424e-02
1.132000e+11 1.321056e-02 -3.385995e-02 -6.608229e-01 -6.535489e-01 -6.608229e-01 -6.535489e-01 1.321056e-02 -3.385995e-02
1.133000e+11 1.309297e-02 -3.375525e-02 -6.621535e-01 -6.521779e-01 -6.621535e-01 -6.521779e-01 1.309297e-02 -3.375525e-02
1.134000e+11 1.297587e-02 -3.365016e-02 -6.634813e-01 -6.508041e-01 -6.634813e-01 -6.508041e-01 1.297587e-02 -3.365016e-02
1.135000e+11 1.285925e-02 -3.354467e-02 -6.648064e-01 -6.494276e-01 -6.648064e-01 -6.494276e-01 1.285925e-02 -3.354467e-02
1.136000e+11 1.274313e-02 -3.343879e-02 -6.661288e-01 -6.480483e-01 -6.661288e-01 -6.480483e-01 1.274313e-02 -3.343879e-02
1.137000e+11 1.262749e-02 -3.333252e-02 -6.674484e-01 -6.466663e-01 -6.674484e-01 -6.466663e-01 1.262749e-02 -3.333252e-02
1.138000e+11 1.251234e-02 -3.322587e-02 -6.687652e-01 -6.452815e-01 -6.687652e-01 -6.452815e-01 1.251234e-02 -3.322587e-02
1.139000e+11 1.239768e-02 -3.311884e-02 -6.700793e-01 -6.438940e-01 -6.700793e-01 -6.438940e-01 1.239768e-02 -3.311884e-02
1.140000e+11 1.228352e-02 -3.301142e-02 -6.713907e-01 -6.425037e-01 -6.713907e-01 -6.425037e-01 1.228352e-02 -3.301142e-02
1.141000e+11 1.216984e-02 -3.290363e-02 -6.726992e-01 -6.411107e-01 -6.726992e-01 -6.411107e-01 1.216984e-02 -3.290363e-02
1.142000e+11 1.205666e-02 -3.279546e-02 -6.740050e-01 -6.397149e-01 -6.740050e-01 -6.397149e-01 1.205666e-02 -3.279546e-02
1.143000e+11 1.194397e-02 -3.268693e-02 -6.753079e-01 -6.383164e-01 -6.753079e-01 -6.383164e-01 1.194397e-02 -3.268693e-02
1.144000e+11 1.183177e-02 -3.257802e-02 -6.766081e-01 -6.369152e-01 -6.766081e-01 -6.369152e-01 1.183177e-02 -3.257802e-02
1.145000e+11 1.172007e-02 -3.246875e-02 -6.779055e-01 -6.355113e-01 -6.779055e-01 -6.355113e-01 1.172007e-02 -3.246875e-02
1.146000e+11 1.160886e-02 -3.235912e-02 -6.792001e-01 -6.341046e-01 -6.792001e-01 -6.341046e-01 1.160886e-02 -3.235912e-02
1.147000e+11 1.149815e-02 -3.224913e-02 -6.804918e-01 -6.326953e-01 -6.804918e-01 -6.326953e-01 1.149815e-02 -3.224913e-02
1.148000e+11 1.138794e-02 -3.213878e-02 -6.817807e-01 -6.312832e-01 -6.817807e-01 -6.312832e-01 1.138794e-02 -3.213878e-02
1.149000e+11 1.127822e-02 -3.202808e-02 -6.830668e-01 -6.298684e-01 -6.830668e-01 -6.298684e-01 1.127822e-02 -3.202808e-02
1.150000e+11 1.116899e-02 -3.191702e-02 -6.843500e-01 -6.284509e-01 -6.843500e-01 -6.284509e-01 1.116899e-02 -3.191702e-02
1.151000e+11 1.106027e-02 -3.180562e-02 -6.856304e-01 -6.270308e-01 -6.856304e-01 -6.270308e-01 1.106027e-02 -3.180562e-02
1.152000e+11 1.095204e-02 -3.169387e-02 -6.869079e-01 -6.256079e-01 -6.869079e-01 -6.256079e-01 1.095204e-02 -3.169387e-02
1.153000e+11 1.084431e-02 -3.158178e-02 -6.881826e-01 -6.241824e-01 -6.881826e-01 -6.241824e-01 1.084431e-02 -3.158178e-02
1.154000e+11 1.073708e-02 -3.146935e-02 -6.894543e-01 -6.227542e-01 -6.894543e-01 -6.227542e-01 1.073708e-02 -3.146935e-02
1.155000e+11 1.063035e-02 -3.135658e-02 -6.907233e-01 -6.213233e-01 -6.907233e-01 -6.213233e-01 1.063035e-02 -3.135658e-02
1.156000e+11 1.052412e-02 -3.124348e-02 -6.919893e-01 -6.198897e-01 -6.919893e-01 -6.198897e-01 1.052412e-02 -3.124348e-02
1.157000e+11 1.041839e-02 -3.113004e-02 -6.932524e-01 -6.184535e-01 -6.932524e-01 -6.184535e-01 1.041839e-02 -3.113004e-02
1.158000e+11 1.031315e-02 -3.101627e-02 -6.945126e-01 -6.170147e-01 -6.945126e-01 -6.170147e-01 1.031315e-02 -3.101627e-02
1.159000e+11 1.020842e-02 -3.090218e-02 -6.957699e-01 -6.155731e-01 -6.957699e-01 -6.155731e-01 1.020842e-02 -3.090218e-02
1.160000e+11 1.010419e-02 -3.078776e-02 -6.970243e-01 -6.141290e-01 -6.970243e-01 -6.141290e-01 1.010419e-02 -3.078776e-02
1.161000e+11 1.000047e-02 -3.067302e-02 -6.982758e-01 -6.126822e-01 -6.982758e-01 -6.126822e-01 1.000047e-02 -3.067302e-02
