#   Hz   S  RI   R   50
!
1.000000e+11 3.134954e-02 -4.155183e-02 -4.633254e-01 -8.082307e-01 -4.633254e-01 -8.082307e-01 3.134954e-02 -4.155183e-02
1.001000e+11 3.121083e-02 -4.151958e-02 -4.649353e-01 -8.072670e-01 -4.649353e-01 -8.072670e-01 3.121083e-02 -4.151958e-02
1.002000e+11 3.107213e-02 -4.148694e-02 -4.665440e-01 -8.063008e-01 -4.665440e-01 -8.063008e-01 3.107213e-02 -4.148694e-02
1.003000e+11 3.093345e-02 -4.145391e-02 -4.681514e-01 -8.053320e-01 -4.681514e-01 -8.053320e-01 3.093345e-02 -4.145391e-02
1.004000e+11 3.079478e-02 -4.142049e-02 -4.697575e-01 -8.043606e-01 -4.697575e-01 -8.043606e-01 3.079478e-02 -4.142049e-02
1.005000e+11 3.065613e-02 -4.138667e-02 -4.713624e-01 -8.033867e-01 -4.713624e-01 -8.033867e-01 3.065613e-02 -4.138667e-02
1.006000e+11 3.051750e-02 -4.135245e-02 -4.729659e-01 -8.024102e-01 -4.729659e-01 -8.024102e-01 3.051750e-02 -4.135245e-02
1.007000e+11 3.037889e-02 -4.131783e-02 -4.745682e-01 -8.014310e-01 -4.745682e-01 -8.014310e-01 3.037889e-02 -4.131783e-02
1.008000e+11 3.024029e-02 -4.128281e-02 -4.761693e-01 -8.004492e-01 -4.761693e-01 -8.004492e-01 3.024029e-02 -4.128281e-02
1.009000e+11 3.010172e-02 -4.124738e-02 -4.777690e-01 -7.994647e-01 -4.777690e-01 -7.994647e-01 3.010172e-02 -4.124738e-02
1.010000e+11 2.996317e-02 -4.121154e-02 -4.793675e-01 -7.984775e-01 -4.793675e-01 -7.984775e-01 2.996317e-02 -4.121154e-02
1.011000e+11 2.982465e-02 -4.117528e-02 -4.809647e-01 -7.974876e-01 -4.809647e-01 -7.974876e-01 2.982465e-02 -4.117528e-02
1.012000e+11 2.968615e-02 -4.113861e-02 -4.825606e-01 -7.964950e-01 -4.825606e-01 -7.964950e-01 2.968615e-02 -4.113861e-02
1.013000e+11 2.954768e-02 -4.110153e-02 -4.841552e-01 -7.954996e-01 -4.841552e-01 -7.954996e-01 2.954768e-02 -4.110153e-02
1.014000e+11 2.940924e-02 -4.106402e-02 -4.857485e-01 -7.945015e-01 -4.857485e-01 -7.945015e-01 2.940924e-02 -4.106402e-02
1.015000e+11 2.927084e-02 -4.102609e-02 -4.873404e-01 -7.935006e-01 -4.873404e-01 -7.935006e-01 2.927084e-02 -4.102609e-02
1.016000e+11 2.913246e-02 -4.098773e-02 -4.889311e-01 -7.924969e-01 -4.889311e-01 -7.924969e-01 2.913246e-02 -4.098773e-02
1.017000e+11 2.899412e-02 -4.094894e-02 -4.905205e-01 -7.914904e-01 -4.905205e-01 -7.914904e-01 2.899412e-02 -4.094894e-02
1.018000e+11 2.885582e-02 -4.090973e-02 -4.921085e-01 -7.904810e-01 -4.921085e-01 -7.904810e-01 2.885582e-02 -4.090973e-02
1.019000e+11 2.871755e-02 -4.087008e-02 -4.936951e-01 -7.894688e-01 -4.936951e-01 -7.894688e-01 2.871755e-02 -4.087008e-02
1.020000e+11 2.857933e-02 -4.082999e-02 -4.952805e-01 -7.884537e-01 -4.952805e-01 -7.884537e-01 2.857933e-02 -4.082999e-02
1.021000e+11 2.844115e-02 -4.078947e-02 -4.968644e-01 -7.874357e-01 -4.968644e-01 -7.874357e-01 2.844115e-02 -4.078947e-02
1.022000e+11 2.830301e-02 -4.074851e-02 -4.984470e-01 -7.864148e-01 -4.984470e-01 -7.864148e-01 2.830301e-02 -4.074851e-02
1.023000e+11 2.816493e-02 -4.070711e-02 -5.000283e-01 -7.853910e-01 -5.000283e-01 -7.853910e-01 2.816493e-02 -4.070711e-02
1.024000e+11 2.802689e-02 -4.066526e-02 -5.016081e-01 -7.843643e-01 -5.016081e-01 -7.843643e-01 2.802689e-02 -4.066526e-02
1.025000e+11 2.788890e-02 -4.062296e-02 -5.031866e-01 -7.833346e-01 -5.031866e-01 -7.833346e-01 2.788890e-02 -4.062296e-02
1.026000e+11 2.775096e-02 -4.058022e-02 -5.047637e-01 -7.823020e-01 -5.047637e-01 -7.823020e-01 2.775096e-02 -4.058022e-02
1.027000e+11 2.761309e-02 -4.053702e-02 -5.063393e-01 -7.812664e-01 -5.063393e-01 -7.812664e-01 2.761309e-02 -4.053702e-02
1.028000e+11 2.747527e-02 -4.049338e-02 -5.079136e-01 -7.802278e-01 -5.079136e-01 -7.802278e-01 2.747527e-02 -4.049338e-02
1.029000e+11 2.733751e-02 -4.044927e-02 -5.094864e-01 -7.791862e-01 -5.094864e-01 -7.791862e-01 2.733751e-02 -4.044927e-02
1.030000e+11 2.719981e-02 -4.040472e-02 -5.110577e-01 -7.781415e-01 -5.110577e-01 -7.781415e-01 2.719981e-02 -4.040472e-02
1.031000e+11 2.706218e-02 -4.035970e-02 -5.126277e-01 -7.770939e-01 -5.126277e-01 -7.770939e-01 2.706218e-02 -4.035970e-02
1.032000e+11 2.692462e-02 -4.031422e-02 -5.141961e-01 -7.760431e-01 -5.141961e-01 -7.760431e-01 2.692462e-02 -4.031422e-02
1.033000e+11 2.678713e-02 -4.026828e-02 -5.157631e-01 -7.749894e-01 -5.157631e-01 -7.749894e-01 2.678713e-02 -4.026828e-02
1.034000e+11 2.664971e-02 -4.022188e-02 -5.173286e-01 -7.739325e-01 -5.173286e-01 -7.739325e-01 2.664971e-02 -4.022188e-02
1.035000e+11 2.651237e-02 -4.017501e-02 -5.188926e-01 -7.728726e-01 -5.188926e-01 -7.728726e-01 2.651237e-02 -4.017501e-02
1.036000e+11 2.637511e-02 -4.012768e-02 -5.204551e-01 -7.718096e-01 -5.204551e-01 -7.718096e-01 2.637511e-02 -4.012768e-02
1.037000e+11 2.623792e-02 -4.007987e-02 -5.220160e-01 -7.707434e-01 -5.220160e-01 -7.707434e-01 2.623792e-02 -4.007987e-02
1.038000e+11 2.610082e-02 -4.003160e-02 -5.235754e-01 -7.696742e-01 -5.235754e-01 -7.696742e-01 2.610082e-02 -4.003160e-02
1.039000e+11 2.596381e-02 -3.998285e-02 -5.251333e-01 -7.686018e-01 -5.251333e-01 -7.686018e-01 2.596381e-02 -3.998285e-02
1.040000e+11 2.582689e-02 -3.993363e-02 -5.266896e-01 -7.675263e-01 -5.266896e-01 -7.675263e-01 2.582689e-02 -3.993363e-02
1.041000e+11 2.569005e-02 -3.988394e-02 -5.282444e-01 -7.664476e-01 -5.282444e-01 -7.664476e-01 2.569005e-02 -3.988394e-02
1.042000e+11 2.555332e-02 -3.983377e-02 -5.297975e-01 -7.653658e-01 -5.297975e-01 -7.653658e-01 2.555332e-02 -3.983377e-02
1.043000e+11 2.541668e-02 -3.978312e-02 -5.313491e-01 -7.642808e-01 -5.313491e-01 -7.642808e-01 2.541668e-02 -3.978312e-02
1.044000e+11 2.528014e-02 -3.973199e-02 -5.328990e-01 -7.631926e-01 -5.328990e-01 -7.631926e-01 2.528014e-02 -3.973199e-02
1.045000e+11 2.514370e-02 -3.968039e-02 -5.344474e-01 -7.621013e-01 -5.344474e-01 -7.621013e-01 2.514370e-02 -3.968039e-02
1.046000e+11 2.500737e-02 -3.962830e-02 -5.359940e-01 -7.610067e-01 -5.359940e-01 -7.610067e-01 2.500737e-02 -3.962830e-02
1.047000e+11 2.487114e-02 -3.957573e-02 -5.375390e-01 -7.599089e-01 -5.375390e-01 -7.599089e-01 2.487114e-02 -3.957573e-02
1.048000e+11 2.473503e-02 -3.952268e-02 -5.390824e-01 -7.588079e-01 -5.390824e-01 -7.588079e-01 2.473503e-02 -3.952268e-02
1.049000e+11 2.459903e-02 -3.946914e-02 -5.406241e-01 -7.577037e-01 -5.406241e-01 -7.577037e-01 2.459903e-02 -3.946914e-02
1.050000e+11 2.446315e-02 -3.941511e-02 -5.421640e-01 -7.565963e-01 -5.421640e-01 -7.565963e-01 2.446315e-02 -3.941511e-02
1.051000e+11 2.432739e-02 -3.936060e-02 -5.437023e-01 -7.554856e-01 -5.437023e-01 -7.554856e-01 2.432739e-02 -3.936060e-02
1.052000e+11 2.419175e-02 -3.930561e-02 -5.452388e-01 -7.543717e-01 -5.452388e-01 -7.543717e-01 2.419175e-02 -3.930561e-02
1.053000e+11 2.405624e-02 -3.925012e-02 -5.467736e-01 -7.532546e-01 -5.467736e-01 -7.532546e-01 2.405624e-02 -3.925012e-02
1.054000e+11 2.392086e-02 -3.919415e-02 -5.483066e-01 -7.521341e-01 -5.483066e-01 -7.521341e-01 2.392086e-02 -3.919415e-02
1.055000e+11 2.378561e-02 -3.913768e-02 -5.498379e-01 -7.510105e-01 -5.498379e-01 -7.510105e-01 2.378561e-02 -3.913768e-02
1.056000e+11 2.365049e-02 -3.908073e-02 -5.513674e-01 -7.498835e-01 -5.513674e-01 -7.498835e-01 2.365049e-02 -3.908073e-02
1.057000e+11 2.351551e-02 -3.902328e-02 -5.528950e-01 -7.487533e-01 -5.528950e-01 -7.487533e-01 2.351551e-02 -3.902328e-02
1.058000e+11 2.338068e-02 -3.896535e-02 -5.544209e-01 -7.476198e-01 -5.544209e-01 -7.476198e-01 2.338068e-02 -3.896535e-02
1.059000e+11 2.324598e-02 -3.890691e-02 -5.559449e-01 -7.464830e-01 -5.559449e-01 -7.464830e-01 2.324598e-02 -3.890691e-02
1.060000e+11 2.311143e-02 -3.884799e-02 -5.574671e-01 -7.453429e-01 -5.574671e-01 -7.453429e-01 2.311143e-02 -3.884799e-02
1.061000e+11 2.297704e-02 -3.878857e-02 -5.589874e-01 -7.441995e-01 -5.589874e-01 -7.441995e-01 2.297704e-02 -3.878857e-02
1.062000e+11 2.284279e-02 -3.872866e-02 -5.605058e-01 -7.430529e-01 -5.605058e-01 -7.430529e-01 2.284279e-02 -3.872866e-02
1.063000e+11 2.270870e-02 -3.866825e-02 -5.620224e-01 -7.419029e-01 -5.620224e-01 -7.419029e-01 2.270870e-02 -3.866825e-02
1.064000e+11 2.257478e-02 -3.860735e-02 -5.635370e-01 -7.407496e-01 -5.635370e-01 -7.407496e-01 2.257478e-02 -3.860735e-02
1.065000e+11 2.244101e-02 -3.854595e-02 -5.650498e-01 -7.395930e-01 -5.650498e-01 -7.395930e-01 2.244101e-02 -3.854595e-02
1.066000e+11 2.230740e-02 -3.848406e-02 -5.665605e-01 -7.384331e-01 -5.665605e-01 -7.384331e-01 2.230740e-02 -3.848406e-02
1.067000e+11 2.217397e-02 -3.842167e-02 -5.680694e-01 -7.372699e-01 -5.680694e-01 -7.372699e-01 2.217397e-02 -3.842167e-02
1.068000e+11 2.204071e-02 -3.835879e-02 -5.695762e-01 -7.361034e-01 -5.695762e-01 -7.361034e-01 2.204071e-02 -3.835879e-02
1.069000e+11 2.190762e-02 -3.829540e-02 -5.710811e-01 -7.349336e-01 -5.710811e-01 -7.349336e-01 2.190762e-02 -3.829540e-02
1.070000e+11 2.177470e-02 -3.823152e-02 -5.725840e-01 -7.337604e-01 -5.725840e-01 -7.337604e-01 2.177470e-02 -3.823152e-02
1.071000e+11 2.164197e-02 -3.816715e-02 -5.740848e-01 -7.325839e-01 -5.740848e-01 -7.325839e-01 2.164197e-02 -3.816715e-02
1.072000e+11 2.150942e-02 -3.810228e-02 -5.755836e-01 -7.314041e-01 -5.755836e-01 -7.314041e-01 2.150942e-02 -3.810228e-02
1.073000e+11 2.137706e-02 -3.803691e-02 -5.770804e-01 -7.302209e-01 -5.770804e-01 -7.302209e-01 2.137706e-02 -3.803691e-02
1.074000e+11 2.124488e-02 -3.797104e-02 -5.785751e-01 -7.290345e-01 -5.785751e-01 -7.290345e-01 2.124488e-02 -3.797104e-02
1.075000e+11 2.111290e-02 -3.790468e-02 -5.800678e-01 -7.278447e-01 -5.800678e-01 -7.278447e-01 2.111290e-02 -3.790468e-02
1.076000e+11 2.098111e-02 -3.783782e-02 -5.815583e-01 -7.266515e-01 -5.815583e-01 -7.266515e-01 2.098111e-02 -3.783782e-02
1.077000e+11 2.084952e-02 -3.777046e-02 -5.830468e-01 -7.254551e-01 -5.830468e-01 -7.254551e-01 2.084952e-02 -3.777046e-02
1.078000e+11 2.071814e-02 -3.770260e-02 -5.845331e-01 -7.242553e-01 -5.845331e-01 -7.242553e-01 2.071814e-02 -3.770260e-02
1.079000e+11 2.058695e-02 -3.763425e-02 -5.860172e-01 -7.230522e-01 -5.860172e-01 -7.230522e-01 2.058695e-02 -3.763425e-02
1.080000e+11 2.045598e-02 -3.756541e-02 -5.874993e-01 -7.218457e-01 -5.874993e-01 -7.218457e-01 2.045598e-02 -3.756541e-02
1.081000e+11 2.032521e-02 -3.749606e-02 -5.889791e-01 -7.206360e-01 -5.889791e-01 -7.206360e-01 2.032521e-02 -3.749606e-02
1.082000e+11 2.019466e-02 -3.742622e-02 -5.904568e-01 -7.194229e-01 -5.904568e-01 -7.194229e-01 2.019466e-02 -3.742622e-02
1.083000e+11 2.006432e-02 -3.735589e-02 -5.919322e-01 -7.182064e-01 -5.919322e-01 -7.182064e-01 2.006432e-02 -3.735589e-02
1.084000e+11 1.993420e-02 -3.728506e-02 -5.934055e-01 -7.169867e-01 -5.934055e-01 -7.169867e-01 1.993420e-02 -3.728506e-02
1.085000e+11 1.980431e-02 -3.721374e-02 -5.948765e-01 -7.157636e-01 -5.948765e-01 -7.157636e-01 1.980431e-02 -3.721374e-02
1.086000e+11 1.967464e-02 -3.714192e-02 -5.963452e-01 -7.145372e-01 -5.963452e-01 -7.145372e-01 1.967464e-02 -3.714192e-02
1.087000e+11 1.954520e-02 -3.706961e-02 -5.978117e-01 -7.133075e-01 -5.978117e-01 -7.133075e-01 1.954520e-02 -3.706961e-02
1.088000e+11 1.941599e-02 -3.699680e-02 -5.992760e-01 -7.120745e-01 -5.992760e-01 -7.120745e-01 1.941599e-02 -3.699680e-02
1.089000e+11 1.928701e-02 -3.692351e-02 -6.007379e-01 -7.108381e-01 -6.007379e-01 -7.108381e-01 1.928701e-02 -3.692351e-02
1.090000e+11 1.915827e-02 -3.684972e-02 -6.021975e-01 -7.095984e-01 -6.021975e-01 -7.095984e-01 1.915827e-02 -3.684972e-02
1.091000e+11 1.902977e-02 -3.677544e-02 -6.036548e-01 -7.083555e-01 -6.036548e-01 -7.083555e-01 1.902977e-02 -3.677544e-02
1.092000e+11 1.890151e-02 -3.670066e-02 -6.051098e-01 -7.071092e-01 -6.051098e-01 -7.071092e-01 1.890151e-02 -3.670066e-02
1.093000e+11 1.877350e-02 -3.662540e-02 -6.065624e-01 -7.058596e-01 -6.065624e-01 -7.058596e-01 1.877350e-02 -3.662540e-02
1.094000e+11 1.864573e-02 -3.654965e-02 -6.080126e-01 -7.046067e-01 -6.080126e-01 -7.046067e-01 1.864573e-02 -3.654965e-02
1.095000e+11 1.851822e-02 -3.647341e-02 -6.094605e-01 -7.033505e-01 -6.094605e-01 -7.033505e-01 1.851822e-02 -3.647341e-02
1.096000e+11 1.839096e-02 -3.639668e-02 -6.109059e-01 -7.020910e-01 -6.109059e-01 -7.020910e-01 1.839096e-02 -3.639668e-02
1.097000e+11 1.826396e-02 -3.631946e-02 -6.123490e-01 -7.008283e-01 -6.123490e-01 -7.008283e-01 1.826396e-02 -3.631946e-02
1.098000e+11 1.813722e-02 -3.624176e-02 -6.137896e-01 -6.995622e-01 -6.137896e-01 -6.995622e-01 1.813722e-02 -3.624176e-02
1.099000e+11 1.801074e-02 -3.616357e-02 -6.152278e-01 -6.982929e-01 -6.152278e-01 -6.982929e-01 1.801074e-02 -3.616357e-02
1.100000e+11 1.788452e-02 -3.608490e-02 -6.166635e-01 -6.970202e-01 -6.166635e-01 -6.970202e-01 1.788452e-02 -3.608490e-02
1.101000e+11 1.775858e-02 -3.600574e-02 -6.180967e-01 -6.957443e-01 -6.180967e-01 -6.957443e-01 1.775858e-02 -3.600574e-02
1.102000e+11 1.763290e-02 -3.592610e-02 -6.195275e-01 -6.944652e-01 -6.195275e-01 -6.944652e-01 1.763290e-02 -3.592610e-02
1.103000e+11 1.750750e-02 -3.584598e-02 -6.209558e-01 -6.931827e-01 -6.209558e-01 -6.931827e-01 1.750750e-02 -3.584598e-02
1.104000e+11 1.738238e-02 -3.576538e-02 -6.223815e-01 -6.918971e-01 -6.223815e-01 -6.918971e-01 1.738238e-02 -3.576538e-02
1.105000e+11 1.725753e-02 -3.568429e-02 -6.238047e-01 -6.906081e-01 -6.238047e-01 -6.906081e-01 1.725753e-02 -3.568429e-02
1.106000e+11 1.713297e-02 -3.560273e-02 -6.252254e-01 -6.893159e-01 -6.252254e-01 -6.893159e-01 1.713297e-02 -3.560273e-02
1.107000e+11 1.700869e-02 -3.552069e-02 -6.266436e-01 -6.880205e-01 -6.266436e-01 -6.880205e-01 1.700869e-02 -3.552069e-02
1.108000e+11 1.688470e-02 -3.543818e-02 -6.280591e-01 -6.867218e-01 -6.280591e-01 -6.867218e-01 1.688470e-02 -3.543818e-02
1.109000e+11 1.676099e-02 -3.535518e-02 -6.294721e-01 -6.854199e-01 -6.294721e-01 -6.854199e-01 1.676099e-02 -3.535518e-02
1.110000e+11 1.663759e-02 -3.527172e-02 -6.308825e-01 -6.841148e-01 -6.308825e-01 -6.841148e-01 1.663759e-02 -3.527172e-02
1.111000e+11 1.651447e-02 -3.518778e-02 -6.322903e-01 -6.828065e-01 -6.322903e-01 -6.828065e-01 1.651447e-02 -3.518778e-02
1.112000e+11 1.639166e-02 -3.510336e-02 -6.336954e-01 -6.814949e-01 -6.336954e-01 -6.814949e-01 1.639166e-02 -3.510336e-02
1.113000e+11 1.626914e-02 -3.501848e-02 -6.350979e-01 -6.801801e-01 -6.350979e-01 -6.801801e-01 1.626914e-02 -3.501848e-02
1.114000e+11 1.614693e-02 -3.493313e-02 -6.364978e-01 -6.788622e-01 -6.364978e-01 -6.788622e-01 1.614693e-02 -3.493313e-02
1.115000e+11 1.602502e-02 -3.484731e-02 -6.378950e-01 -6.775410e-01 -6.378950e-01 -6.775410e-01 1.602502e-02 -3.484731e-02
1.116000e+11 1.590343e-02 -3.476102e-02 -6.392895e-01 -6.762167e-01 -6.392895e-01 -6.762167e-01 1.590343e-02 -3.476102e-02
1.117000e+11 1.578214e-02 -3.467426e-02 -6.406813e-01 -6.748891e-01 -6.406813e-01 -6.748891e-01 1.578214e-02 -3.467426e-02
1.118000e+11 1.566116e-02 -3.458704e-02 -6.420705e-01 -6.735584e-01 -6.420705e-01 -6.735584e-01 1.566116e-02 -3.458704e-02
1.119000e+11 1.554051e-02 -3.449936e-02 -6.434569e-01 -6.722246e-01 -6.434569e-01 -6.722246e-01 1.554051e-02 -3.449936e-02
1.120000e+11 1.542017e-02 -3.441122e-02 -6.448406e-01 -6.708875e-01 -6.448406e-01 -6.708875e-01 1.542017e-02 -3.441122e-02
1.121000e+11 1.530015e-02 -3.432261e-02 -6.462215e-01 -6.695474e-01 -6.462215e-01 -6.695474e-01 1.530015e-02 -3.432261e-02
1.122000e+11 1.518045e-02 -3.423355e-02 -6.475997e-01 -6.682040e-01 -6.475997e-01 -6.682040e-01 1.518045e-02 -3.423355e-02
1.123000e+11 1.506108e-02 -3.414403e-02 -6.489751e-01 -6.668576e-01 -6.489751e-01 -6.668576e-01 1.506108e-02 -3.414403e-02
1.124000e+11 1.494204e-02 -3.405405e-02 -6.503478e-01 -6.655080e-01 -6.503478e-01 -6.655080e-01 1.494204e-02 -3.405405e-02
1.125000e+11 1.482333e-02 -3.396362e-02 -6.517176e-01 -6.641553e-01 -6.517176e-01 -6.641553e-01 1.482333e-02 -3.396362e-02
1.126000e+11 1.470495e-02 -3.387273e-02 -6.530847e-01 -6.627995e-01 -6.530847e-01 -6.627995e-01 1.470495e-02 -3.387273e-02
1.127000e+11 1.458691e-02 -3.378140e-02 -6.544489e-01 -6.614405e-01 -6.544489e-01 -6.614405e-01 1.458691e-02 -3.378140e-02
1.128000e+11 1.446920e-02 -3.368961e-02 -6.558104e-01 -6.600785e-01 -6.558104e-01 -6.600785e-01 1.446920e-02 -3.368961e-02
1.129000e+11 1.435184e-02 -3.359738e-02 -6.571689e-01 -6.587134e-01 -6.571689e-01 -6.587134e-01 1.435184e-02 -3.359738e-02
1.130000e+11 1.423481e-02 -3.350469e-02 -6.585247e-01 -6.573452e-01 -6.585247e-01 -6.573452e-01 1.423481e-02 -3.350469e-02
1.131000e+11 1.411814e-02 -3.341157e-02 -6.598775e-01 -6.559740e-01 -6.598775e-01 -6.559740e-01 1.411814e-02 -3.341157e-02
1.132000e+11 1.400180e-02 -3.331799e-02 -6.612275e-01 -6.545996e-01 -6.612275e-01 -6.545996e-01 1.400180e-02 -3.331799e-02
1.133000e+11 1.388582e-02 -3.322398e-02 -6.625746e-01 -6.532222e-01 -6.625746e-01 -6.532222e-01 1.388582e-02 -3.322398e-02
1.134000e+11 1.377019e-02 -3.312953e-02 -6.639188e-01 -6.518418e-01 -6.639188e-01 -6.518418e-01 1.377019e-02 -3.312953e-02
1.135000e+11 1.365491e-02 -3.303463e-02 -6.652601e-01 -6.504584e-01 -6.652601e-01 -6.504584e-01 1.365491e-02 -3.303463e-02
1.136000e+11 1.353999e-02 -3.293930e-02 -6.665985e-01 -6.490719e-01 -6.665985e-01 -6.490719e-01 1.353999e-02 -3.293930e-02
1.137000e+11 1.342543e-02 -3.284354e-02 -6.679340e-01 -6.476823e-01 -6.679340e-01 -6.476823e-01 1.342543e-02 -3.284354e-02
1.138000e+11 1.331123e-02 -3.274734e-02 -6.692665e-01 -6.462898e-01 -6.692665e-01 -6.462898e-01 1.331123e-02 -3.274734e-02
1.139000e+11 1.319739e-02 -3.265071e-02 -6.705961e-01 -6.448943e-01 -6.705961e-01 -6.448943e-01 1.319739e-02 -3.265071e-02
1.140000e+11 1.308391e-02 -3.255365e-02 -6.719227e-01 -6.434958e-01 -6.719227e-01 -6.434958e-01 1.308391e-02 -3.255365e-02
1.141000e+11 1.297080e-02 -3.245616e-02 -6.732463e-01 -6.420943e-01 -6.732463e-01 -6.420943e-01 1.297080e-02 -3.245616e-02
1.142000e+11 1.285806e-02 -3.235824e-02 -6.745669e-01 -6.406898e-01 -6.745669e-01 -6.406898e-01 1.285806e-02 -3.235824e-02
1.143000e+11 1.274569e-02 -3.225990e-02 -6.758846e-01 -6.392824e-01 -6.758846e-01 -6.392824e-01 1.274569e-02 -3.225990e-02
1.144000e+11 1.263369e-02 -3.216113e-02 -6.771992e-01 -6.378720e-01 -6.771992e-01 -6.378720e-01 1.263369e-02 -3.216113e-02
1.145000e+11 1.252207e-02 -3.206195e-02 -6.785109e-01 -6.364586e-01 -6.785109e-01 -6.364586e-01 1.252207e-02 -3.206195e-02
1.146000e+11 1.241082e-02 -3.196234e-02 -6.798195e-01 -6.350424e-01 -6.798195e-01 -6.350424e-01 1.241082e-02 -3.196234e-02
1.147000e+11 1.229995e-02 -3.186231e-02 -6.811250e-01 -6.336232e-01 -6.811250e-01 -6.336232e-01 1.229995e-02 -3.186231e-02
1.148000e+11 1.218947e-02 -3.176187e-02 -6.824276e-01 -6.322010e-01 -6.824276e-01 -6.322010e-01 1.218947e-02 -3.176187e-02
1.149000e+11 1.207937e-02 -3.166102e-02 -6.837271e-01 -6.307760e-01 -6.837271e-01 -6.307760e-01 1.207937e-02 -3.166102e-02
1.150000e+11 1.196965e-02 -3.155975e-02 -6.850235e-01 -6.293481e-01 -6.850235e-01 -6.293481e-01 1.196965e-02 -3.155975e-02
1.151000e+11 1.186032e-02 -3.145808e-02 -6.863168e-01 -6.279173e-01 -6.863168e-01 -6.279173e-01 1.186032e-02 -3.145808e-02
1.152000e+11 1.175137e-02 -3.135599e-02 -6.876071e-01 -6.264836e-01 -6.876071e-01 -6.264836e-01 1.175137e-02 -3.135599e-02
1.153000e+11 1.164282e-02 -3.125350e-02 -6.888942e-01 -6.250471e-01 -6.888942e-01 -6.250471e-01 1.164282e-02 -3.125350e-02
1.154000e+11 1.153466e-02 -3.115060e-02 -6.901783e-01 -6.236076e-01 -6.901783e-01 -6.236076e-01 1.153466e-02 -3.115060e-02
1.155000e+11 1.142690e-02 -3.104730e-02 -6.914593e-01 -6.221654e-01 -6.914593e-01 -6.221654e-01 1.142690e-02 -3.104730e-02
1.156000e+11 1.131953e-02 -3.094360e-02 -6.927371e-01 -6.207203e-01 -6.927371e-01 -6.207203e-01 1.131953e-02 -3.094360e-02
1.157000e+11 1.121256e-02 -3.083950e-02 -6.940118e-01 -6.192724e-01 -6.940118e-01 -6.192724e-01 1.121256e-02 -3.083950e-02
1.158000e+11 1.110598e-02 -3.073500e-02 -6.952834e-01 -6.178216e-01 -6.952834e-01 -6.178216e-01 1.110598e-02 -3.073500e-02
1.159000e+11 1.099981e-02 -3.063011e-02 -6.965518e-01 -6.163681e-01 -6.965518e-01 -6.163681e-01 1.099981e-02 -3.063011e-02
1.160000e+11 1.089405e-02 -3.052483e-02 -6.978171e-01 -6.149118e-01 -6.978171e-01 -6.149118e-01 1.089405e-02 -3.052483e-02
1.161000e+11 1.078869e-02 -3.041915e-02 -6.990792e-01 -6.134526e-01 -6.990792e-01 -6.134526e-01 1.078869e-02 -3.041915e-02
