#   Hz   S  RI   R   50
!
1.000000e+09 -9.896667e-01 1.174629e-02
2.000000e+09 -9.909174e-01 2.425600e-02
3.000000e+09 -9.922573e-01 3.799402e-02
4.000000e+09 -9.928729e-01 5.295169e-02
5.000000e+09 -9.920943e-01 6.865351e-02
6.000000e+09 -9.896243e-01 8.432247e-02
7.000000e+09 -9.856356e-01 9.913155e-02
8.000000e+09 -9.807244e-01 1.124607e-01
9.000000e+09 -9.757405e-01 1.240919e-01
1.000000e+10 -9.715387e-01 1.342910e-01
1.100000e+10 -9.687146e-01 1.437477e-01
1.200000e+10 -9.674066e-01 1.533751e-01
1.300000e+10 -9.672372e-01 1.640232e-01
1.400000e+10 -9.674281e-01 1.762010e-01
1.500000e+10 -9.670567e-01 1.899105e-01
1.600000e+10 -9.653591e-01 2.046564e-01
1.700000e+10 -9.619717e-01 2.196214e-01
1.800000e+10 -9.570308e-01 2.339377e-01
1.900000e+10 -9.511114e-01 2.469608e-01
2.000000e+10 -9.450337e-01 2.584628e-01
2.100000e+10 -9.396025e-01 2.686924e-01
2.200000e+10 -9.353558e-01 2.782894e-01
2.300000e+10 -9.323973e-01 2.880780e-01
2.400000e+10 -9.303680e-01 2.988013e-01
2.500000e+10 -9.285674e-01 3.108826e-01
2.600000e+10 -9.261868e-01 3.242946e-01
2.700000e+10 -9.225731e-01 3.385795e-01
2.800000e+10 -9.174338e-01 3.530103e-01
2.900000e+10 -9.109162e-01 3.668323e-01
3.000000e+10 -9.035449e-01 3.795028e-01
3.100000e+10 -8.960423e-01 3.908546e-01
3.200000e+10 -8.890951e-01 4.011366e-01
3.300000e+10 -8.831381e-01 4.109246e-01
3.400000e+10 -8.782211e-01 4.209307e-01
3.500000e+10 -8.740005e-01 4.317728e-01
3.600000e+10 -8.698579e-01 4.437777e-01
3.700000e+10 -8.651047e-01 4.568827e-01
3.800000e+10 -8.592061e-01 4.706661e-01
3.900000e+10 -8.519472e-01 4.844939e-01
4.000000e+10 -8.434905e-01 4.977299e-01
4.100000e+10 -8.343102e-01 5.099381e-01
4.200000e+10 -8.250302e-01 5.210153e-01
4.300000e+10 -8.162197e-01 5.312131e-01
4.400000e+10 -8.082120e-01 5.410481e-01
4.500000e+10 -8.010017e-01 5.511291e-01
4.600000e+10 -7.942528e-01 5.619582e-01
4.700000e+10 -7.874133e-01 5.737695e-01
4.800000e+10 -7.798985e-01 5.864582e-01
4.900000e+10 -7.712811e-01 5.996224e-01
5.000000e+10 -7.614248e-01 6.127007e-01
5.100000e+10 -7.505195e-01 6.251587e-01
5.200000e+10 -7.390099e-01 6.366614e-01
5.300000e+10 -7.274418e-01 6.471765e-01
5.400000e+10 -7.162803e-01 6.569774e-01
5.500000e+10 -7.057569e-01 6.665467e-01
5.600000e+10 -6.957945e-01 6.764127e-01
5.700000e+10 -6.860353e-01 6.869719e-01
5.800000e+10 -6.759611e-01 6.983573e-01
5.900000e+10 -6.650666e-01 7.103954e-01
6.000000e+10 -6.530266e-01 7.226660e-01
6.100000e+10 -6.398013e-01 7.346461e-01
6.200000e+10 -6.256440e-01 7.458857e-01
6.300000e+10 -6.110090e-01 7.561596e-01
6.400000e+10 -5.963909e-01 7.655413e-01
6.500000e+10 -5.821502e-01 7.743752e-01
6.600000e+10 -5.683815e-01 7.831562e-01
6.700000e+10 -5.548718e-01 7.923540e-01
6.800000e+10 -5.411646e-01 8.022423e-01
6.900000e+10 -5.267110e-01 8.127920e-01
7.000000e+10 -5.110578e-01 8.236675e-01
7.100000e+10 -4.940087e-01 8.343331e-01
7.200000e+10 -4.756971e-01 8.442358e-01
7.300000e+10 -4.565411e-01 8.530031e-01
7.400000e+10 -4.370884e-01 8.605860e-01
7.500000e+10 -4.177971e-01 8.672896e-01
7.600000e+10 -3.988255e-01 8.736693e-01
7.700000e+10 -3.799066e-01 8.803134e-01
7.800000e+10 -3.603648e-01 8.875725e-01
7.900000e+10 -3.392901e-01 8.953219e-01
8.000000e+10 -3.158361e-01 9.028434e-01
8.100000e+10 -2.895645e-01 9.088866e-01
8.200000e+10 -2.607323e-01 9.119170e-01
8.300000e+10 -2.304233e-01 9.105056e-01
8.400000e+10 -2.004642e-01 9.037627e-01
8.500000e+10 -1.731190e-01 8.916997e-01
8.600000e+10 -1.506181e-01 8.754095e-01
8.700000e+10 -1.346301e-01 8.569977e-01
8.800000e+10 -1.258043e-01 8.392561e-01
8.900000e+10 -1.235094e-01 8.251359e-01
9.000000e+10 -1.258507e-01 8.171357e-01
9.100000e+10 -1.299818e-01 8.167525e-01
9.200000e+10 -1.326517e-01 8.241355e-01
9.300000e+10 -1.308605e-01 8.380381e-01
9.400000e+10 -1.224632e-01 8.560879e-01
9.500000e+10 -1.065730e-01 8.753092e-01
9.600000e+10 -8.366667e-02 8.927684e-01
9.700000e+10 -5.537243e-02 9.061823e-01
9.800000e+10 -2.400262e-02 9.143404e-01
9.900000e+10 8.044931e-03 9.172465e-01
1.000000e+11 3.886271e-02 9.159549e-01
1.010000e+11 6.744201e-02 9.121563e-01
1.020000e+11 9.381585e-02 9.076312e-01
1.030000e+11 1.189100e-01 9.037221e-01
1.040000e+11 1.441559e-01 9.009683e-01
1.050000e+11 1.709842e-01 8.989969e-01
1.060000e+11 2.003495e-01 8.966926e-01
1.070000e+11 2.324237e-01 8.925834e-01
1.080000e+11 2.665416e-01 8.853228e-01
1.090000e+11 3.014120e-01 8.741206e-01
1.100000e+11 3.355228e-01 8.589928e-01
1.110000e+11 3.676194e-01 8.407555e-01
1.120000e+11 3.971091e-01 8.207603e-01
1.130000e+11 4.242639e-01 8.004465e-01
1.140000e+11 4.501514e-01 7.808439e-01
1.150000e+11 4.763032e-01 7.621764e-01
1.160000e+11 5.042075e-01 7.436959e-01
1.170000e+11 5.347718e-01 7.238110e-01
1.180000e+11 5.679154e-01 7.004897e-01
1.190000e+11 6.024208e-01 6.718357e-01
1.200000e+11 6.361035e-01 6.366833e-01
1.210000e+11 6.662747e-01 5.950440e-01
1.220000e+11 6.903900e-01 5.482720e-01
1.230000e+11 7.067201e-01 4.988820e-01
1.240000e+11 7.148670e-01 4.500451e-01
1.250000e+11 7.159779e-01 4.048736e-01
1.260000e+11 7.125823e-01 3.656677e-01
1.270000e+11 7.080741e-01 3.333186e-01
1.280000e+11 7.059563e-01 3.070251e-01
1.290000e+11 7.090293e-01 2.844051e-01
1.300000e+11 7.187234e-01 2.619810e-01
1.310000e+11 7.347356e-01 2.359235e-01
1.320000e+11 7.550562e-01 2.028756e-01
1.330000e+11 7.763707e-01 1.606624e-01
1.340000e+11 7.947338e-01 1.087281e-01
1.350000e+11 8.063528e-01 4.820825e-02
1.360000e+11 8.082934e-01 -1.836080e-02
1.370000e+11 7.989522e-01 -8.760853e-02
1.380000e+11 7.781993e-01 -1.560218e-01
1.390000e+11 7.471842e-01 -2.205865e-01
1.400000e+11 7.078838e-01 -2.792276e-01
1.410000e+11 6.625321e-01 -3.309580e-01
1.420000e+11 6.130946e-01 -3.757308e-01
1.430000e+11 5.609238e-01 -4.140713e-01
1.440000e+11 5.066716e-01 -4.466201e-01
1.450000e+11 4.504537e-01 -4.737328e-01
1.460000e+11 3.921899e-01 -4.952571e-01
1.470000e+11 3.319950e-01 -5.105430e-01
1.480000e+11 2.704865e-01 -5.186732e-01
1.490000e+11 2.089061e-01 -5.188279e-01
1.500000e+11 1.490137e-01 -5.106625e-01
1.510000e+11 9.278321e-02 -4.945724e-01
1.520000e+11 4.199254e-02 -4.717545e-01
1.530000e+11 -2.168589e-03 -4.440409e-01
1.540000e+11 -3.935406e-02 -4.135454e-01
1.550000e+11 -7.010186e-02 -3.822231e-01
1.560000e+11 -9.564422e-02 -3.514649e-01
1.570000e+11 -1.175385e-01 -3.218425e-01
1.580000e+11 -1.372204e-01 -2.930733e-01
1.590000e+11 -1.556027e-01 -2.642126e-01
1.600000e+11 -1.728281e-01 -2.340186e-01
1.610000e+11 -1.882411e-01 -2.013852e-01
1.620000e+11 -2.005772e-01 -1.657213e-01
1.630000e+11 -2.083119e-01 -1.271771e-01
1.640000e+11 -2.100613e-01 -8.665948e-02
1.650000e+11 -2.049232e-01 -4.564890e-02
1.660000e+11 -1.926648e-01 -5.880411e-03
1.670000e+11 -1.737181e-01 3.100655e-02
1.680000e+11 -1.490011e-01 6.374491e-02
1.690000e+11 -1.196369e-01 9.156555e-02
1.700000e+11 -8.667240e-02 1.141464e-01
1.710000e+11 -5.089247e-02 1.314190e-01
1.720000e+11 -1.279364e-02 1.433136e-01
1.730000e+11 2.727766e-02 1.495466e-01
1.740000e+11 6.887404e-02 1.495407e-01
1.750000e+11 1.111800e-01 1.425247e-01
1.760000e+11 1.528386e-01 1.277999e-01
1.770000e+11 1.919595e-01 1.050976e-01
1.780000e+11 2.263457e-01 7.491300e-02
1.790000e+11 2.539042e-01 3.869204e-02
1.800000e+11 2.731445e-01 -1.222202e-03
1.810000e+11 2.836246e-01 -4.191305e-02
1.820000e+11 2.861998e-01 -8.043532e-02
1.830000e+11 2.829714e-01 -1.144588e-01
1.840000e+11 2.769053e-01 -1.428425e-01
1.850000e+11 2.711867e-01 -1.659719e-01
1.860000e+11 2.684552e-01 -1.857443e-01
1.870000e+11 2.701128e-01 -2.051732e-01
1.880000e+11 2.758899e-01 -2.276868e-01
1.890000e+11 2.837961e-01 -2.562787e-01
1.900000e+11 2.904886e-01 -2.927178e-01
1.910000e+11 2.919868e-01 -3.370150e-01
1.920000e+11 2.845709e-01 -3.872901e-01
1.930000e+11 2.656488e-01 -4.400845e-01
1.940000e+11 2.343781e-01 -4.910585e-01
1.950000e+11 1.918787e-01 -5.359090e-01
1.960000e+11 1.409753e-01 -5.712786e-01
1.970000e+11 8.552999e-02 -5.954255e-01
1.980000e+11 2.953546e-02 -6.084758e-01
1.990000e+11 -2.379047e-02 -6.121946e-01
2.000000e+11 -7.266568e-02 -6.093393e-01
2.010000e+11 -1.169838e-01 -6.027765e-01
2.020000e+11 -1.580712e-01 -5.946072e-01
2.030000e+11 -1.980322e-01 -5.855430e-01
2.040000e+11 -2.388622e-01 -5.747074e-01
2.050000e+11 -2.815770e-01 -5.599260e-01
2.060000e+11 -3.256017e-01 -5.384337e-01
2.070000e+11 -3.686016e-01 -5.078187e-01
2.080000e+11 -4.068205e-01 -4.669474e-01
2.090000e+11 -4.358591e-01 -4.166165e-01
2.100000e+11 -4.516989e-01 -3.597419e-01
2.110000e+11 -4.517123e-01 -3.010173e-01
2.120000e+11 -4.353952e-01 -2.461180e-01
2.130000e+11 -4.046368e-01 -2.006439e-01
2.140000e+11 -3.634622e-01 -1.690589e-01
2.150000e+11 -3.173188e-01 -1.538784e-01
2.160000e+11 -2.720844e-01 -1.552825e-01
2.170000e+11 -2.330336e-01 -1.712247e-01
2.180000e+11 -2.039952e-01 -1.979863e-01
2.190000e+11 -1.868801e-01 -2.310241e-01
2.200000e+11 -1.816611e-01 -2.658979e-01
2.210000e+11 -1.867745e-01 -2.990524e-01
2.220000e+11 -1.998084e-01 -3.282772e-01
2.230000e+11 -2.182744e-01 -3.527565e-01
2.240000e+11 -2.402463e-01 -3.727394e-01
2.250000e+11 -2.646991e-01 -3.889651e-01
2.260000e+11 -2.914782e-01 -4.020408e-01
2.270000e+11 -3.209439e-01 -4.119724e-01
2.280000e+11 -3.534297e-01 -4.179911e-01
2.290000e+11 -3.887059e-01 -4.187226e-01
2.300000e+11 -4.256315e-01 -4.126382e-01
2.310000e+11 -4.621179e-01 -3.986407e-01
2.320000e+11 -4.954302e-01 -3.765970e-01
2.330000e+11 -5.227493e-01 -3.476406e-01
2.340000e+11 -5.418366e-01 -3.141357e-01
2.350000e+11 -5.516057e-01 -2.792946e-01
2.360000e+11 -5.524321e-01 -2.465421e-01
2.370000e+11 -5.461032e-01 -2.187990e-01
2.380000e+11 -5.354185e-01 -1.978797e-01
2.390000e+11 -5.235465e-01 -1.841642e-01
2.400000e+11 -5.133074e-01 -1.766290e-01
2.410000e+11 -5.065736e-01 -1.732207e-01
2.420000e+11 -5.039382e-01 -1.714678e-01
2.430000e+11 -5.047319e-01 -1.691620e-01
2.440000e+11 -5.073736e-01 -1.649260e-01
2.450000e+11 -5.099476e-01 -1.585191e-01
2.460000e+11 -5.108415e-01 -1.508024e-01
2.470000e+11 -5.092635e-01 -1.433882e-01
2.480000e+11 -5.054973e-01 -1.380840e-01
2.490000e+11 -5.008325e-01 -1.362965e-01
2.500000e+11 -4.972046e-01 -1.385671e-01
2.510000e+11 -4.966569e-01 -1.443637e-01
2.520000e+11 -5.007832e-01 -1.521751e-01
2.530000e+11 -5.103053e-01 -1.598685e-01
2.540000e+11 -5.248951e-01 -1.652008e-01
2.550000e+11 -5.432779e-01 -1.663339e-01
2.560000e+11 -5.635728e-01 -1.622130e-01
2.570000e+11 -5.837604e-01 -1.527104e-01
2.580000e+11 -6.021336e-01 -1.385104e-01
2.590000e+11 -6.176022e-01 -1.207916e-01
2.600000e+11 -6.297721e-01 -1.008229e-01
2.610000e+11 -6.387996e-01 -7.960809e-02
2.620000e+11 -6.450910e-01 -5.768914e-02
2.630000e+11 -6.489640e-01 -3.515985e-02
2.640000e+11 -6.503953e-01 -1.186819e-02
2.650000e+11 -6.489399e-01 1.227635e-02
2.660000e+11 -6.438513e-01 3.700696e-02
2.670000e+11 -6.343585e-01 6.152666e-02
2.680000e+11 -6.200052e-01 8.452741e-02
2.690000e+11 -6.009289e-01 1.044046e-01
2.700000e+11 -5.779815e-01 1.196019e-01
2.710000e+11 -5.526411e-01 1.289760e-01
2.720000e+11 -5.267386e-01 1.320618e-01
2.730000e+11 -5.020844e-01 1.291526e-01
2.740000e+11 -4.801109e-01 1.211695e-01
2.750000e+11 -4.616453e-01 1.093649e-01
2.760000e+11 -4.468806e-01 9.495680e-02
2.770000e+11 -4.355523e-01 7.881483e-02
2.780000e+11 -4.272575e-01 6.130559e-02
2.790000e+11 -4.218043e-01 4.235208e-02
2.800000e+11 -4.194633e-01 2.169213e-02
