#   Hz   S  RI   R   50
!
1.000000e+11 3.107659e-02 -4.244230e-02 -4.629818e-01 -8.072963e-01 -4.629818e-01 -8.072963e-01 3.107659e-02 -4.244230e-02
1.001000e+11 3.092987e-02 -4.240232e-02 -4.645824e-01 -8.063419e-01 -4.645824e-01 -8.063419e-01 3.092987e-02 -4.240232e-02
1.002000e+11 3.078330e-02 -4.236192e-02 -4.661820e-01 -8.053851e-01 -4.661820e-01 -8.053851e-01 3.078330e-02 -4.236192e-02
1.003000e+11 3.063689e-02 -4.232109e-02 -4.677805e-01 -8.044257e-01 -4.677805e-01 -8.044257e-01 3.063689e-02 -4.232109e-02
1.004000e+11 3.049064e-02 -4.227984e-02 -4.693780e-01 -8.034638e-01 -4.693780e-01 -8.034638e-01 3.049064e-02 -4.227984e-02
1.005000e+11 3.034455e-02 -4.223817e-02 -4.709743e-01 -8.024993e-01 -4.709743e-01 -8.024993e-01 3.034455e-02 -4.223817e-02
1.006000e+11 3.019861e-02 -4.219607e-02 -4.725696e-01 -8.015322e-01 -4.725696e-01 -8.015322e-01 3.019861e-02 -4.219607e-02
1.007000e+11 3.005283e-02 -4.215354e-02 -4.741637e-01 -8.005626e-01 -4.741637e-01 -8.005626e-01 3.005283e-02 -4.215354e-02
1.008000e+11 2.990721e-02 -4.211059e-02 -4.757568e-01 -7.995903e-01 -4.757568e-01 -7.995903e-01 2.990721e-02 -4.211059e-02
1.009000e+11 2.976175e-02 -4.206720e-02 -4.773487e-01 -7.986154e-01 -4.773487e-01 -7.986154e-01 2.976175e-02 -4.206720e-02
1.010000e+11 2.961645e-02 -4.202339e-02 -4.789395e-01 -7.976378e-01 -4.789395e-01 -7.976378e-01 2.961645e-02 -4.202339e-02
1.011000e+11 2.947130e-02 -4.197914e-02 -4.805292e-01 -7.966575e-01 -4.805292e-01 -7.966575e-01 2.947130e-02 -4.197914e-02
1.012000e+11 2.932632e-02 -4.193447e-02 -4.821178e-01 -7.956745e-01 -4.821178e-01 -7.956745e-01 2.932632e-02 -4.193447e-02
1.013000e+11 2.918150e-02 -4.188936e-02 -4.837053e-01 -7.946888e-01 -4.837053e-01 -7.946888e-01 2.918150e-02 -4.188936e-02
1.014000e+11 2.903684e-02 -4.184381e-02 -4.852916e-01 -7.937003e-01 -4.852916e-01 -7.937003e-01 2.903684e-02 -4.184381e-02
1.015000e+11 2.889234e-02 -4.179783e-02 -4.868768e-01 -7.927091e-01 -4.868768e-01 -7.927091e-01 2.889234e-02 -4.179783e-02
1.016000e+11 2.874801e-02 -4.175142e-02 -4.884608e-01 -7.917150e-01 -4.884608e-01 -7.917150e-01 2.874801e-02 -4.175142e-02
1.017000e+11 2.860383e-02 -4.170456e-02 -4.900437e-01 -7.907182e-01 -4.900437e-01 -7.907182e-01 2.860383e-02 -4.170456e-02
1.018000e+11 2.845983e-02 -4.165727e-02 -4.916254e-01 -7.897185e-01 -4.916254e-01 -7.897185e-01 2.845983e-02 -4.165727e-02
1.019000e+11 2.831599e-02 -4.160954e-02 -4.932059e-01 -7.887159e-01 -4.932059e-01 -7.887159e-01 2.831599e-02 -4.160954e-02
1.020000e+11 2.817232e-02 -4.156137e-02 -4.947852e-01 -7.877105e-01 -4.947852e-01 -7.877105e-01 2.817232e-02 -4.156137e-02
1.021000e+11 2.802881e-02 -4.151276e-02 -4.963634e-01 -7.867022e-01 -4.963634e-01 -7.867022e-01 2.802881e-02 -4.151276e-02
1.022000e+11 2.788548e-02 -4.146371e-02 -4.979403e-01 -7.856910e-01 -4.979403e-01 -7.856910e-01 2.788548e-02 -4.146371e-02
1.023000e+11 2.774231e-02 -4.141421e-02 -4.995160e-01 -7.846769e-01 -4.995160e-01 -7.846769e-01 2.774231e-02 -4.141421e-02
1.024000e+11 2.759932e-02 -4.136428e-02 -5.010905e-01 -7.836598e-01 -5.010905e-01 -7.836598e-01 2.759932e-02 -4.136428e-02
1.025000e+11 2.745650e-02 -4.131389e-02 -5.026637e-01 -7.826398e-01 -5.026637e-01 -7.826398e-01 2.745650e-02 -4.131389e-02
1.026000e+11 2.731385e-02 -4.126307e-02 -5.042357e-01 -7.816168e-01 -5.042357e-01 -7.816168e-01 2.731385e-02 -4.126307e-02
1.027000e+11 2.717138e-02 -4.121179e-02 -5.058065e-01 -7.805908e-01 -5.058065e-01 -7.805908e-01 2.717138e-02 -4.121179e-02
1.028000e+11 2.702908e-02 -4.116008e-02 -5.073759e-01 -7.795618e-01 -5.073759e-01 -7.795618e-01 2.702908e-02 -4.116008e-02
1.029000e+11 2.688696e-02 -4.110791e-02 -5.089441e-01 -7.785297e-01 -5.089441e-01 -7.785297e-01 2.688696e-02 -4.110791e-02
1.030000e+11 2.674502e-02 -4.105529e-02 -5.105110e-01 -7.774947e-01 -5.105110e-01 -7.774947e-01 2.674502e-02 -4.105529e-02
1.031000e+11 2.660326e-02 -4.100223e-02 -5.120766e-01 -7.764566e-01 -5.120766e-01 -7.764566e-01 2.660326e-02 -4.100223e-02
1.032000e+11 2.646169e-02 -4.094872e-02 -5.136408e-01 -7.754154e-01 -5.136408e-01 -7.754154e-01 2.646169e-02 -4.094872e-02
1.033000e+11 2.632029e-02 -4.089476e-02 -5.152037e-01 -7.743711e-01 -5.152037e-01 -7.743711e-01 2.632029e-02 -4.089476e-02
1.034000e+11 2.617908e-02 -4.084034e-02 -5.167653e-01 -7.733237e-01 -5.167653e-01 -7.733237e-01 2.617908e-02 -4.084034e-02
1.035000e+11 2.603806e-02 -4.078548e-02 -5.183255e-01 -7.722733e-01 -5.183255e-01 -7.722733e-01 2.603806e-02 -4.078548e-02
1.036000e+11 2.589723e-02 -4.073016e-02 -5.198844e-01 -7.712197e-01 -5.198844e-01 -7.712197e-01 2.589723e-02 -4.073016e-02
1.037000e+11 2.575658e-02 -4.067439e-02 -5.214418e-01 -7.701630e-01 -5.214418e-01 -7.701630e-01 2.575658e-02 -4.067439e-02
1.038000e+11 2.561613e-02 -4.061817e-02 -5.229978e-01 -7.691031e-01 -5.229978e-01 -7.691031e-01 2.561613e-02 -4.061817e-02
1.039000e+11 2.547587e-02 -4.056150e-02 -5.245525e-01 -7.680400e-01 -5.245525e-01 -7.680400e-01 2.547587e-02 -4.056150e-02
1.040000e+11 2.533580e-02 -4.050437e-02 -5.261057e-01 -7.669738e-01 -5.261057e-01 -7.669738e-01 2.533580e-02 -4.050437e-02
1.041000e+11 2.519593e-02 -4.044678e-02 -5.276574e-01 -7.659044e-01 -5.276574e-01 -7.659044e-01 2.519593e-02 -4.044678e-02
1.042000e+11 2.505626e-02 -4.038874e-02 -5.292077e-01 -7.648319e-01 -5.292077e-01 -7.648319e-01 2.505626e-02 -4.038874e-02
1.043000e+11 2.491678e-02 -4.033025e-02 -5.307565e-01 -7.637561e-01 -5.307565e-01 -7.637561e-01 2.491678e-02 -4.033025e-02
1.044000e+11 2.477751e-02 -4.027130e-02 -5.323038e-01 -7.626771e-01 -5.323038e-01 -7.626771e-01 2.477751e-02 -4.027130e-02
1.045000e+11 2.463844e-02 -4.021190e-02 -5.338496e-01 -7.615948e-01 -5.338496e-01 -7.615948e-01 2.463844e-02 -4.021190e-02
1.046000e+11 2.449958e-02 -4.015203e-02 -5.353939e-01 -7.605094e-01 -5.353939e-01 -7.605094e-01 2.449958e-02 -4.015203e-02
1.047000e+11 2.436092e-02 -4.009171e-02 -5.369367e-01 -7.594207e-01 -5.369367e-01 -7.594207e-01 2.436092e-02 -4.009171e-02
1.048000e+11 2.422247e-02 -4.003094e-02 -5.384779e-01 -7.583287e-01 -5.384779e-01 -7.583287e-01 2.422247e-02 -4.003094e-02
1.049000e+11 2.408424e-02 -3.996970e-02 -5.400175e-01 -7.572335e-01 -5.400175e-01 -7.572335e-01 2.408424e-02 -3.996970e-02
1.050000e+11 2.394621e-02 -3.990801e-02 -5.415556e-01 -7.561350e-01 -5.415556e-01 -7.561350e-01 2.394621e-02 -3.990801e-02
1.051000e+11 2.380840e-02 -3.984586e-02 -5.430920e-01 -7.550332e-01 -5.430920e-01 -7.550332e-01 2.380840e-02 -3.984586e-02
1.052000e+11 2.367080e-02 -3.978326e-02 -5.446269e-01 -7.539281e-01 -5.446269e-01 -7.539281e-01 2.367080e-02 -3.978326e-02
1.053000e+11 2.353342e-02 -3.972019e-02 -5.461601e-01 -7.528198e-01 -5.461601e-01 -7.528198e-01 2.353342e-02 -3.972019e-02
1.054000e+11 2.339627e-02 -3.965667e-02 -5.476916e-01 -7.517081e-01 -5.476916e-01 -7.517081e-01 2.339627e-02 -3.965667e-02
1.055000e+11 2.325933e-02 -3.959269e-02 -5.492215e-01 -7.505931e-01 -5.492215e-01 -7.505931e-01 2.325933e-02 -3.959269e-02
1.056000e+11 2.312262e-02 -3.952825e-02 -5.507497e-01 -7.494748e-01 -5.507497e-01 -7.494748e-01 2.312262e-02 -3.952825e-02
1.057000e+11 2.298613e-02 -3.946335e-02 -5.522762e-01 -7.483532e-01 -5.522762e-01 -7.483532e-01 2.298613e-02 -3.946335e-02
1.058000e+11 2.284987e-02 -3.939799e-02 -5.538010e-01 -7.472283e-01 -5.538010e-01 -7.472283e-01 2.284987e-02 -3.939799e-02
1.059000e+11 2.271384e-02 -3.933218e-02 -5.553241e-01 -7.461000e-01 -5.553241e-01 -7.461000e-01 2.271384e-02 -3.933218e-02
1.060000e+11 2.257804e-02 -3.926590e-02 -5.568454e-01 -7.449683e-01 -5.568454e-01 -7.449683e-01 2.257804e-02 -3.926590e-02
1.061000e+11 2.244248e-02 -3.919917e-02 -5.583650e-01 -7.438334e-01 -5.583650e-01 -7.438334e-01 2.244248e-02 -3.919917e-02
1.062000e+11 2.230715e-02 -3.913198e-02 -5.598828e-01 -7.426951e-01 -5.598828e-01 -7.426951e-01 2.230715e-02 -3.913198e-02
1.063000e+11 2.217206e-02 -3.906433e-02 -5.613988e-01 -7.415534e-01 -5.613988e-01 -7.415534e-01 2.217206e-02 -3.906433e-02
1.064000e+11 2.203721e-02 -3.899622e-02 -5.629129e-01 -7.404084e-01 -5.629129e-01 -7.404084e-01 2.203721e-02 -3.899622e-02
1.065000e+11 2.190260e-02 -3.892765e-02 -5.644253e-01 -7.392600e-01 -5.644253e-01 -7.392600e-01 2.190260e-02 -3.892765e-02
1.066000e+11 2.176823e-02 -3.885863e-02 -5.659358e-01 -7.381082e-01 -5.659358e-01 -7.381082e-01 2.176823e-02 -3.885863e-02
1.067000e+11 2.163411e-02 -3.878915e-02 -5.674444e-01 -7.369531e-01 -5.674444e-01 -7.369531e-01 2.163411e-02 -3.878915e-02
1.068000e+11 2.150024e-02 -3.871921e-02 -5.689511e-01 -7.357946e-01 -5.689511e-01 -7.357946e-01 2.150024e-02 -3.871921e-02
1.069000e+11 2.136662e-02 -3.864882e-02 -5.704560e-01 -7.346327e-01 -5.704560e-01 -7.346327e-01 2.136662e-02 -3.864882e-02
1.070000e+11 2.123325e-02 -3.857796e-02 -5.719589e-01 -7.334675e-01 -5.719589e-01 -7.334675e-01 2.123325e-02 -3.857796e-02
1.071000e+11 2.110013e-02 -3.850665e-02 -5.734599e-01 -7.322988e-01 -5.734599e-01 -7.322988e-01 2.110013e-02 -3.850665e-02
1.072000e+11 2.096727e-02 -3.843489e-02 -5.749590e-01 -7.311268e-01 -5.749590e-01 -7.311268e-01 2.096727e-02 -3.843489e-02
1.073000e+11 2.083467e-02 -3.836267e-02 -5.764561e-01 -7.299514e-01 -5.764561e-01 -7.299514e-01 2.083467e-02 -3.836267e-02
1.074000e+11 2.070233e-02 -3.828999e-02 -5.779512e-01 -7.287726e-01 -5.779512e-01 -7.287726e-01 2.070233e-02 -3.828999e-02
1.075000e+11 2.057025e-02 -3.821686e-02 -5.794443e-01 -7.275904e-01 -5.794443e-01 -7.275904e-01 2.057025e-02 -3.821686e-02
1.076000e+11 2.043843e-02 -3.814328e-02 -5.809354e-01 -7.264049e-01 -5.809354e-01 -7.264049e-01 2.043843e-02 -3.814328e-02
1.077000e+11 2.030688e-02 -3.806924e-02 -5.824245e-01 -7.252159e-01 -5.824245e-01 -7.252159e-01 2.030688e-02 -3.806924e-02
1.078000e+11 2.017560e-02 -3.799474e-02 -5.839115e-01 -7.240236e-01 -5.839115e-01 -7.240236e-01 2.017560e-02 -3.799474e-02
1.079000e+11 2.004460e-02 -3.791980e-02 -5.853964e-01 -7.228279e-01 -5.853964e-01 -7.228279e-01 2.004460e-02 -3.791980e-02
1.080000e+11 1.991386e-02 -3.784440e-02 -5.868793e-01 -7.216287e-01 -5.868793e-01 -7.216287e-01 1.991386e-02 -3.784440e-02
1.081000e+11 1.978340e-02 -3.776855e-02 -5.883600e-01 -7.204262e-01 -5.883600e-01 -7.204262e-01 1.978340e-02 -3.776855e-02
1.082000e+11 1.965321e-02 -3.769224e-02 -5.898387e-01 -7.192203e-01 -5.898387e-01 -7.192203e-01 1.965321e-02 -3.769224e-02
1.083000e+11 1.952331e-02 -3.761549e-02 -5.913152e-01 -7.180110e-01 -5.913152e-01 -7.180110e-01 1.952331e-02 -3.761549e-02
1.084000e+11 1.939368e-02 -3.753829e-02 -5.927896e-01 -7.167984e-01 -5.927896e-01 -7.167984e-01 1.939368e-02 -3.753829e-02
1.085000e+11 1.926434e-02 -3.746064e-02 -5.942618e-01 -7.155823e-01 -5.942618e-01 -7.155823e-01 1.926434e-02 -3.746064e-02
1.086000e+11 1.913529e-02 -3.738253e-02 -5.957318e-01 -7.143629e-01 -5.957318e-01 -7.143629e-01 1.913529e-02 -3.738253e-02
1.087000e+11 1.900652e-02 -3.730398e-02 -5.971996e-01 -7.131401e-01 -5.971996e-01 -7.131401e-01 1.900652e-02 -3.730398e-02
1.088000e+11 1.887804e-02 -3.722499e-02 -5.986652e-01 -7.119139e-01 -5.986652e-01 -7.119139e-01 1.887804e-02 -3.722499e-02
1.089000e+11 1.874985e-02 -3.714554e-02 -6.001286e-01 -7.106843e-01 -6.001286e-01 -7.106843e-01 1.874985e-02 -3.714554e-02
1.090000e+11 1.862196e-02 -3.706566e-02 -6.015897e-01 -7.094513e-01 -6.015897e-01 -7.094513e-01 1.862196e-02 -3.706566e-02
1.091000e+11 1.849436e-02 -3.698532e-02 -6.030485e-01 -7.082150e-01 -6.030485e-01 -7.082150e-01 1.849436e-02 -3.698532e-02
1.092000e+11 1.836706e-02 -3.690454e-02 -6.045051e-01 -7.069753e-01 -6.045051e-01 -7.069753e-01 1.836706e-02 -3.690454e-02
1.093000e+11 1.824006e-02 -3.682332e-02 -6.059594e-01 -7.057322e-01 -6.059594e-01 -7.057322e-01 1.824006e-02 -3.682332e-02
1.094000e+11 1.811336e-02 -3.674166e-02 -6.074114e-01 -7.044858e-01 -6.074114e-01 -7.044858e-01 1.811336e-02 -3.674166e-02
1.095000e+11 1.798696e-02 -3.665955e-02 -6.088610e-01 -7.032360e-01 -6.088610e-01 -7.032360e-01 1.798696e-02 -3.665955e-02
1.096000e+11 1.786087e-02 -3.657701e-02 -6.103083e-01 -7.019829e-01 -6.103083e-01 -7.019829e-01 1.786087e-02 -3.657701e-02
1.097000e+11 1.773509e-02 -3.649402e-02 -6.117532e-01 -7.007263e-01 -6.117532e-01 -7.007263e-01 1.773509e-02 -3.649402e-02
1.098000e+11 1.760962e-02 -3.641060e-02 -6.131958e-01 -6.994665e-01 -6.131958e-01 -6.994665e-01 1.760962e-02 -3.641060e-02
1.099000e+11 1.748446e-02 -3.632673e-02 -6.146359e-01 -6.982033e-01 -6.146359e-01 -6.982033e-01 1.748446e-02 -3.632673e-02
1.100000e+11 1.735961e-02 -3.624243e-02 -6.160737e-01 -6.969368e-01 -6.160737e-01 -6.969368e-01 1.735961e-02 -3.624243e-02
1.101000e+11 1.723508e-02 -3.615770e-02 -6.175090e-01 -6.956669e-01 -6.175090e-01 -6.956669e-01 1.723508e-02 -3.615770e-02
1.102000e+11 1.711087e-02 -3.607253e-02 -6.189419e-01 -6.943937e-01 -6.189419e-01 -6.943937e-01 1.711087e-02 -3.607253e-02
1.103000e+11 1.698697e-02 -3.598692e-02 -6.203724e-01 -6.931171e-01 -6.203724e-01 -6.931171e-01 1.698697e-02 -3.598692e-02
1.104000e+11 1.686340e-02 -3.590089e-02 -6.218003e-01 -6.918373e-01 -6.218003e-01 -6.918373e-01 1.686340e-02 -3.590089e-02
1.105000e+11 1.674015e-02 -3.581442e-02 -6.232258e-01 -6.905541e-01 -6.232258e-01 -6.905541e-01 1.674015e-02 -3.581442e-02
1.106000e+11 1.661723e-02 -3.572752e-02 -6.246488e-01 -6.892676e-01 -6.246488e-01 -6.892676e-01 1.661723e-02 -3.572752e-02
1.107000e+11 1.649463e-02 -3.564020e-02 -6.260693e-01 -6.879778e-01 -6.260693e-01 -6.879778e-01 1.649463e-02 -3.564020e-02
1.108000e+11 1.637237e-02 -3.555244e-02 -6.274872e-01 -6.866847e-01 -6.274872e-01 -6.866847e-01 1.637237e-02 -3.555244e-02
1.109000e+11 1.625043e-02 -3.546426e-02 -6.289026e-01 -6.853884e-01 -6.289026e-01 -6.853884e-01 1.625043e-02 -3.546426e-02
1.110000e+11 1.612883e-02 -3.537565e-02 -6.303155e-01 -6.840887e-01 -6.303155e-01 -6.840887e-01 1.612883e-02 -3.537565e-02
1.111000e+11 1.600756e-02 -3.528662e-02 -6.317258e-01 -6.827857e-01 -6.317258e-01 -6.827857e-01 1.600756e-02 -3.528662e-02
1.112000e+11 1.588663e-02 -3.519716e-02 -6.331334e-01 -6.814795e-01 -6.331334e-01 -6.814795e-01 1.588663e-02 -3.519716e-02
1.113000e+11 1.576604e-02 -3.510728e-02 -6.345385e-01 -6.801700e-01 -6.345385e-01 -6.801700e-01 1.576604e-02 -3.510728e-02
1.114000e+11 1.564579e-02 -3.501698e-02 -6.359410e-01 -6.788573e-01 -6.359410e-01 -6.788573e-01 1.564579e-02 -3.501698e-02
1.115000e+11 1.552589e-02 -3.492626e-02 -6.373408e-01 -6.775412e-01 -6.373408e-01 -6.775412e-01 1.552589e-02 -3.492626e-02
1.116000e+11 1.540633e-02 -3.483513e-02 -6.387380e-01 -6.762220e-01 -6.387380e-01 -6.762220e-01 1.540633e-02 -3.483513e-02
1.117000e+11 1.528711e-02 -3.474357e-02 -6.401326e-01 -6.748995e-01 -6.401326e-01 -6.748995e-01 1.528711e-02 -3.474357e-02
1.118000e+11 1.516824e-02 -3.465160e-02 -6.415244e-01 -6.735737e-01 -6.415244e-01 -6.735737e-01 1.516824e-02 -3.465160e-02
1.119000e+11 1.504972e-02 -3.455922e-02 -6.429136e-01 -6.722448e-01 -6.429136e-01 -6.722448e-01 1.504972e-02 -3.455922e-02
1.120000e+11 1.493156e-02 -3.446642e-02 -6.443001e-01 -6.709126e-01 -6.443001e-01 -6.709126e-01 1.493156e-02 -3.446642e-02
1.121000e+11 1.481375e-02 -3.437321e-02 -6.456839e-01 -6.695772e-01 -6.456839e-01 -6.695772e-01 1.481375e-02 -3.437321e-02
1.122000e+11 1.469629e-02 -3.427959e-02 -6.470649e-01 -6.682386e-01 -6.470649e-01 -6.682386e-01 1.469629e-02 -3.427959e-02
1.123000e+11 1.457919e-02 -3.418556e-02 -6.484432e-01 -6.668968e-01 -6.484432e-01 -6.668968e-01 1.457919e-02 -3.418556e-02
1.124000e+11 1.446245e-02 -3.409113e-02 -6.498188e-01 -6.655518e-01 -6.498188e-01 -6.655518e-01 1.446245e-02 -3.409113e-02
1.125000e+11 1.434607e-02 -3.399628e-02 -6.511915e-01 -6.642036e-01 -6.511915e-01 -6.642036e-01 1.434607e-02 -3.399628e-02
1.126000e+11 1.423005e-02 -3.390104e-02 -6.525615e-01 -6.628523e-01 -6.525615e-01 -6.628523e-01 1.423005e-02 -3.390104e-02
1.127000e+11 1.411440e-02 -3.380539e-02 -6.539288e-01 -6.614978e-01 -6.539288e-01 -6.614978e-01 1.411440e-02 -3.380539e-02
1.128000e+11 1.399911e-02 -3.370934e-02 -6.552932e-01 -6.601401e-01 -6.552932e-01 -6.601401e-01 1.399911e-02 -3.370934e-02
1.129000e+11 1.388419e-02 -3.361289e-02 -6.566548e-01 -6.587793e-01 -6.566548e-01 -6.587793e-01 1.388419e-02 -3.361289e-02
1.130000e+11 1.376964e-02 -3.351604e-02 -6.580135e-01 -6.574154e-01 -6.580135e-01 -6.574154e-01 1.376964e-02 -3.351604e-02
1.131000e+11 1.365546e-02 -3.341879e-02 -6.593694e-01 -6.560483e-01 -6.593694e-01 -6.560483e-01 1.365546e-02 -3.341879e-02
1.132000e+11 1.354166e-02 -3.332114e-02 -6.607225e-01 -6.546781e-01 -6.607225e-01 -6.546781e-01 1.354166e-02 -3.332114e-02
1.133000e+11 1.342822e-02 -3.322311e-02 -6.620727e-01 -6.533048e-01 -6.620727e-01 -6.533048e-01 1.342822e-02 -3.322311e-02
1.134000e+11 1.331517e-02 -3.312468e-02 -6.634200e-01 -6.519284e-01 -6.634200e-01 -6.519284e-01 1.331517e-02 -3.312468e-02
1.135000e+11 1.320249e-02 -3.302586e-02 -6.647645e-01 -6.505489e-01 -6.647645e-01 -6.505489e-01 1.320249e-02 -3.302586e-02
1.136000e+11 1.309019e-02 -3.292665e-02 -6.661060e-01 -6.491663e-01 -6.661060e-01 -6.491663e-01 1.309019e-02 -3.292665e-02
1.137000e+11 1.297827e-02 -3.282705e-02 -6.674446e-01 -6.477806e-01 -6.674446e-01 -6.477806e-01 1.297827e-02 -3.282705e-02
1.138000e+11 1.286673e-02 -3.272706e-02 -6.687803e-01 -6.463919e-01 -6.687803e-01 -6.463919e-01 1.286673e-02 -3.272706e-02
1.139000e+11 1.275558e-02 -3.262669e-02 -6.701130e-01 -6.450001e-01 -6.701130e-01 -6.450001e-01 1.275558e-02 -3.262669e-02
1.140000e+11 1.264481e-02 -3.252594e-02 -6.714428e-01 -6.436053e-01 -6.714428e-01 -6.436053e-01 1.264481e-02 -3.252594e-02
1.141000e+11 1.253443e-02 -3.242481e-02 -6.727697e-01 -6.422074e-01 -6.727697e-01 -6.422074e-01 1.253443e-02 -3.242481e-02
1.142000e+11 1.242444e-02 -3.232329e-02 -6.740936e-01 -6.408065e-01 -6.740936e-01 -6.408065e-01 1.242444e-02 -3.232329e-02
1.143000e+11 1.231484e-02 -3.222140e-02 -6.754145e-01 -6.394026e-01 -6.754145e-01 -6.394026e-01 1.231484e-02 -3.222140e-02
1.144000e+11 1.220563e-02 -3.211913e-02 -6.767324e-01 -6.379956e-01 -6.767324e-01 -6.379956e-01 1.220563e-02 -3.211913e-02
1.145000e+11 1.209681e-02 -3.201649e-02 -6.780472e-01 -6.365857e-01 -6.780472e-01 -6.365857e-01 1.209681e-02 -3.201649e-02
1.146000e+11 1.198839e-02 -3.191347e-02 -6.793591e-01 -6.351728e-01 -6.793591e-01 -6.351728e-01 1.198839e-02 -3.191347e-02
1.147000e+11 1.188036e-02 -3.181008e-02 -6.806680e-01 -6.337569e-01 -6.806680e-01 -6.337569e-01 1.188036e-02 -3.181008e-02
1.148000e+11 1.177273e-02 -3.170632e-02 -6.819738e-01 -6.323380e-01 -6.819738e-01 -6.323380e-01 1.177273e-02 -3.170632e-02
1.149000e+11 1.166550e-02 -3.160220e-02 -6.832766e-01 -6.309162e-01 -6.832766e-01 -6.309162e-01 1.166550e-02 -3.160220e-02
1.150000e+11 1.155868e-02 -3.149771e-02 -6.845763e-01 -6.294914e-01 -6.845763e-01 -6.294914e-01 1.155868e-02 -3.149771e-02
1.151000e+11 1.145225e-02 -3.139285e-02 -6.858729e-01 -6.280637e-01 -6.858729e-01 -6.280637e-01 1.145225e-02 -3.139285e-02
1.152000e+11 1.134622e-02 -3.128763e-02 -6.871665e-01 -6.266331e-01 -6.871665e-01 -6.266331e-01 1.134622e-02 -3.128763e-02
1.153000e+11 1.124061e-02 -3.118204e-02 -6.884570e-01 -6.251995e-01 -6.884570e-01 -6.251995e-01 1.124061e-02 -3.118204e-02
1.154000e+11 1.113539e-02 -3.107610e-02 -6.897444e-01 -6.237630e-01 -6.897444e-01 -6.237630e-01 1.113539e-02 -3.107610e-02
1.155000e+11 1.103059e-02 -3.096980e-02 -6.910287e-01 -6.223237e-01 -6.910287e-01 -6.223237e-01 1.103059e-02 -3.096980e-02
1.156000e+11 1.092619e-02 -3.086315e-02 -6.923099e-01 -6.208814e-01 -6.923099e-01 -6.208814e-01 1.092619e-02 -3.086315e-02
1.157000e+11 1.082220e-02 -3.075614e-02 -6.935879e-01 -6.194363e-01 -6.935879e-01 -6.194363e-01 1.082220e-02 -3.075614e-02
1.158000e+11 1.071863e-02 -3.064878e-02 -6.948628e-01 -6.179883e-01 -6.948628e-01 -6.179883e-01 1.071863e-02 -3.064878e-02
1.159000e+11 1.061547e-02 -3.054106e-02 -6.961346e-01 -6.165375e-01 -6.961346e-01 -6.165375e-01 1.061547e-02 -3.054106e-02
1.160000e+11 1.051272e-02 -3.043300e-02 -6.974032e-01 -6.150838e-01 -6.974032e-01 -6.150838e-01 1.051272e-02 -3.043300e-02
1.161000e+11 1.041039e-02 -3.032459e-02 -6.986686e-01 -6.136272e-01 -6.986686e-01 -6.136272e-01 1.041039e-02 -3.032459e-02
