#   Hz   S  RI   R   50
!
1.000000e+09 -9.875135e-01 9.312819e-03
2.000000e+09 -9.912594e-01 2.082933e-02
3.000000e+09 -9.951547e-01 3.564713e-02
4.000000e+09 -9.969351e-01 5.326695e-02
5.000000e+09 -9.951751e-01 7.188706e-02
6.000000e+09 -9.898640e-01 8.921777e-02
7.000000e+09 -9.823887e-01 1.034212e-01
8.000000e+09 -9.749947e-01 1.138548e-01
9.000000e+09 -9.699041e-01 1.213800e-01
1.000000e+10 -9.683756e-01 1.280779e-01
1.100000e+10 -9.701076e-01 1.363994e-01
1.200000e+10 -9.733231e-01 1.480820e-01
1.300000e+10 -9.755564e-01 1.633640e-01
1.400000e+10 -9.747594e-01 1.809024e-01
1.500000e+10 -9.701782e-01 1.984051e-01
1.600000e+10 -9.626280e-01 2.136379e-01
1.700000e+10 -9.541081e-01 2.253562e-01
1.800000e+10 -9.469496e-01 2.338100e-01
1.900000e+10 -9.428315e-01 2.406362e-01
2.000000e+10 -9.420539e-01 2.481645e-01
2.100000e+10 -9.433982e-01 2.584035e-01
2.200000e+10 -9.446644e-01 2.721556e-01
2.300000e+10 -9.436510e-01 2.886772e-01
2.400000e+10 -9.391146e-01 3.060349e-01
2.500000e+10 -9.312797e-01 3.219678e-01
2.600000e+10 -9.217079e-01 3.348574e-01
2.700000e+10 -9.126109e-01 3.444017e-01
2.800000e+10 -9.059042e-01 3.517302e-01
2.900000e+10 -9.023847e-01 3.589138e-01
3.000000e+10 -9.013861e-01 3.680655e-01
3.100000e+10 -9.010746e-01 3.804162e-01
3.200000e+10 -8.992612e-01 3.957831e-01
3.300000e+10 -8.943612e-01 4.126705e-01
3.400000e+10 -8.860675e-01 4.289404e-01
3.500000e+10 -8.754585e-01 4.427429e-01
3.600000e+10 -8.645148e-01 4.533029e-01
3.700000e+10 -8.552613e-01 4.612413e-01
3.800000e+10 -8.488936e-01 4.683014e-01
3.900000e+10 -8.452596e-01 4.765898e-01
4.000000e+10 -8.429264e-01 4.876563e-01
4.100000e+10 -8.398116e-01 5.018167e-01
4.200000e+10 -8.340969e-01 5.180233e-01
4.300000e+10 -8.250160e-01 5.343336e-01
4.400000e+10 -8.131746e-01 5.487602e-01
4.500000e+10 -8.002770e-01 5.601296e-01
4.600000e+10 -7.883832e-01 5.685854e-01
4.700000e+10 -7.790145e-01 5.755258e-01
4.800000e+10 -7.724859e-01 5.829987e-01
4.900000e+10 -7.677599e-01 5.928064e-01
5.000000e+10 -7.628936e-01 6.057110e-01
5.100000e+10 -7.558880e-01 6.210950e-01
5.200000e+10 -7.455634e-01 6.372279e-01
5.300000e+10 -7.320747e-01 6.520205e-01
5.400000e+10 -7.168466e-01 6.639349e-01
5.500000e+10 -7.019580e-01 6.726589e-01
5.600000e+10 -6.892359e-01 6.792564e-01
5.700000e+10 -6.794442e-01 6.857190e-01
5.800000e+10 -6.719235e-01 6.941012e-01
5.900000e+10 -6.648514e-01 7.056092e-01
6.000000e+10 -6.560246e-01 7.200465e-01
6.100000e+10 -6.438245e-01 7.358718e-01
6.200000e+10 -6.279413e-01 7.508515e-01
6.300000e+10 -6.095354e-01 7.630309e-01
6.400000e+10 -5.907567e-01 7.716050e-01
6.500000e+10 -5.738138e-01 7.773100e-01
6.600000e+10 -5.599825e-01 7.821500e-01
6.700000e+10 -5.489840e-01 7.885480e-01
6.800000e+10 -5.390273e-01 7.982712e-01
6.900000e+10 -5.275287e-01 8.115959e-01
7.000000e+10 -5.122197e-01 8.270983e-01
7.100000e+10 -4.921703e-01 8.421934e-01
7.200000e+10 -4.682676e-01 8.542210e-01
7.300000e+10 -4.429118e-01 8.616307e-01
7.400000e+10 -4.190083e-01 8.647564e-01
7.500000e+10 -3.986398e-01 8.658071e-01
7.600000e+10 -3.819653e-01 8.680054e-01
7.700000e+10 -3.668497e-01 8.741545e-01
7.800000e+10 -3.494662e-01 8.851885e-01
7.900000e+10 -3.257273e-01 8.993170e-01
8.000000e+10 -2.930437e-01 9.121828e-01
8.100000e+10 -2.517453e-01 9.180714e-01
8.200000e+10 -2.055881e-01 9.118078e-01
8.300000e+10 -1.610833e-01 8.907028e-01
8.400000e+10 -1.257929e-01 8.558611e-01
8.500000e+10 -1.061048e-01 8.123511e-01
8.600000e+10 -1.052131e-01 7.681078e-01
8.700000e+10 -1.219876e-01 7.318729e-01
8.800000e+10 -1.511355e-01 7.108263e-01
8.900000e+10 -1.846118e-01 7.086806e-01
9.000000e+10 -2.137995e-01 7.248433e-01
9.100000e+10 -2.317384e-01 7.548680e-01
9.200000e+10 -2.347021e-01 7.919657e-01
9.300000e+10 -2.226939e-01 8.290228e-01
9.400000e+10 -1.988209e-01 8.604499e-01
9.500000e+10 -1.678746e-01 8.833148e-01
9.600000e+10 -1.346668e-01 8.975028e-01
9.700000e+10 -1.026873e-01 9.050011e-01
9.800000e+10 -7.346566e-02 9.086890e-01
9.900000e+10 -4.671837e-02 9.111292e-01
1.000000e+11 -2.107439e-02 9.137781e-01
1.010000e+11 5.005627e-03 9.168076e-01
1.020000e+11 3.250196e-02 9.194686e-01
1.030000e+11 6.154064e-02 9.207309e-01
1.040000e+11 9.155326e-02 9.198735e-01
1.050000e+11 1.217213e-01 9.167807e-01
1.060000e+11 1.514418e-01 9.118723e-01
1.070000e+11 1.805885e-01 9.057723e-01
1.080000e+11 2.094730e-01 8.989296e-01
1.090000e+11 2.385754e-01 8.913933e-01
1.100000e+11 2.682184e-01 8.828424e-01
1.110000e+11 2.983710e-01 8.728262e-01
1.120000e+11 3.286830e-01 8.610603e-01
1.130000e+11 3.587190e-01 8.476054e-01
1.140000e+11 3.882516e-01 8.328198e-01
1.150000e+11 4.174365e-01 8.171100e-01
1.160000e+11 4.467550e-01 8.006153e-01
1.170000e+11 4.767360e-01 7.830123e-01
1.180000e+11 5.075962e-01 7.635704e-01
1.190000e+11 5.389985e-01 7.414607e-01
1.200000e+11 5.700875e-01 7.161781e-01
1.210000e+11 5.998287e-01 6.878556e-01
1.220000e+11 6.275170e-01 6.572698e-01
1.230000e+11 6.532017e-01 6.254691e-01
1.240000e+11 6.777731e-01 5.931453e-01
1.250000e+11 7.025761e-01 5.600273e-01
1.260000e+11 7.286332e-01 5.246239e-01
1.270000e+11 7.557677e-01 4.845412e-01
1.280000e+11 7.820245e-01 4.373702e-01
1.290000e+11 8.037322e-01 3.818840e-01
1.300000e+11 8.163342e-01 3.190972e-01
1.310000e+11 8.158206e-01 2.527130e-01
1.320000e+11 8.003133e-01 1.886499e-01
1.330000e+11 7.712211e-01 1.336550e-01
1.340000e+11 7.334588e-01 9.336927e-02
1.350000e+11 6.945180e-01 7.047766e-02
1.360000e+11 6.625919e-01 6.360916e-02
1.370000e+11 6.443271e-01 6.743292e-02
1.380000e+11 6.429443e-01 7.398164e-02
1.390000e+11 6.573616e-01 7.479836e-02
1.400000e+11 6.826143e-01 6.321068e-02
1.410000e+11 7.114171e-01 3.599442e-02
1.420000e+11 7.363318e-01 -6.094999e-03
1.430000e+11 7.518042e-01 -5.904979e-02
1.440000e+11 7.553968e-01 -1.172844e-01
1.450000e+11 7.478473e-01 -1.756203e-01
1.460000e+11 7.320171e-01 -2.308542e-01
1.470000e+11 7.112060e-01 -2.823641e-01
1.480000e+11 6.875251e-01 -3.315986e-01
1.490000e+11 6.609651e-01 -3.807305e-01
1.500000e+11 6.294979e-01 -4.310696e-01
1.510000e+11 5.901235e-01 -4.818976e-01
1.520000e+11 5.404087e-01 -5.301961e-01
1.530000e+11 4.798794e-01 -5.713682e-01
1.540000e+11 4.107094e-01 -6.006561e-01
1.550000e+11 3.374440e-01 -6.146922e-01
1.560000e+11 2.658890e-01 -6.125899e-01
1.570000e+11 2.016183e-01 -5.961929e-01
1.580000e+11 1.486724e-01 -5.694605e-01
1.590000e+11 1.088937e-01 -5.373140e-01
1.600000e+11 8.203453e-02 -5.044482e-01
1.610000e+11 6.643540e-02 -4.745643e-01
1.620000e+11 5.984357e-02 -4.502260e-01
1.630000e+11 5.993890e-02 -4.332113e-01
1.640000e+11 6.433890e-02 -4.249837e-01
1.650000e+11 7.017856e-02 -4.268531e-01
1.660000e+11 7.364250e-02 -4.395718e-01
1.670000e+11 6.992992e-02 -4.624447e-01
1.680000e+11 5.398892e-02 -4.923667e-01
1.690000e+11 2.200779e-02 -5.233852e-01
1.700000e+11 -2.677028e-02 -5.473005e-01
1.710000e+11 -8.865088e-02 -5.554620e-01
1.720000e+11 -1.552815e-01 -5.413972e-01
1.730000e+11 -2.150818e-01 -5.034365e-01
1.740000e+11 -2.561622e-01 -4.463008e-01
1.750000e+11 -2.699431e-01 -3.808412e-01
1.760000e+11 -2.542900e-01 -3.217183e-01
1.770000e+11 -2.150258e-01 -2.835489e-01
1.780000e+11 -1.651510e-01 -2.766303e-01
1.790000e+11 -1.218287e-01 -3.035640e-01
1.800000e+11 -1.019002e-01 -3.578854e-01
1.810000e+11 -1.171978e-01 -4.252481e-01
1.820000e+11 -1.710643e-01 -4.869631e-01
1.830000e+11 -2.572193e-01 -5.249346e-01
1.840000e+11 -3.614318e-01 -5.265042e-01
1.850000e+11 -4.655330e-01 -4.876441e-01
1.860000e+11 -5.524560e-01 -4.134523e-01
1.870000e+11 -6.105995e-01 -3.158614e-01
1.880000e+11 -6.360937e-01 -2.094859e-01
1.890000e+11 -6.323736e-01 -1.071557e-01
1.900000e+11 -6.074706e-01 -1.667998e-02
1.910000e+11 -5.701932e-01 6.018017e-02
1.920000e+11 -5.266490e-01 1.264053e-01
1.930000e+11 -4.783276e-01 1.867683e-01
1.940000e+11 -4.223395e-01 2.444703e-01
1.950000e+11 -3.535929e-01 2.986854e-01
1.960000e+11 -2.679803e-01 3.439489e-01
1.970000e+11 -1.652858e-01 3.715986e-01
1.980000e+11 -5.067702e-02 3.726839e-01
1.990000e+11 6.577967e-02 3.412341e-01
2.000000e+11 1.713956e-01 2.766958e-01
2.010000e+11 2.541297e-01 1.846981e-01
2.020000e+11 3.057534e-01 7.590300e-02
2.030000e+11 3.238826e-01 -3.667046e-02
2.040000e+11 3.122361e-01 -1.409643e-01
2.050000e+11 2.790772e-01 -2.287525e-01
2.060000e+11 2.344208e-01 -2.971393e-01
2.070000e+11 1.870145e-01 -3.482687e-01
2.080000e+11 1.421331e-01 -3.874980e-01
2.090000e+11 1.008516e-01 -4.208321e-01
2.100000e+11 6.084832e-02 -4.526006e-01
2.110000e+11 1.823172e-02 -4.841482e-01
2.120000e+11 -3.041416e-02 -5.138358e-01
2.130000e+11 -8.652891e-02 -5.381359e-01
2.140000e+11 -1.490772e-01 -5.532423e-01
2.150000e+11 -2.150724e-01 -5.565015e-01
2.160000e+11 -2.807429e-01 -5.471348e-01
2.170000e+11 -3.427484e-01 -5.260792e-01
2.180000e+11 -3.989065e-01 -4.951734e-01
2.190000e+11 -4.481750e-01 -4.561866e-01
2.200000e+11 -4.900126e-01 -4.102052e-01
2.210000e+11 -5.235316e-01 -3.576818e-01
2.220000e+11 -5.469408e-01 -2.991073e-01
2.230000e+11 -5.576342e-01 -2.359597e-01
2.240000e+11 -5.529769e-01 -1.714330e-01
2.250000e+11 -5.315117e-01 -1.105207e-01
2.260000e+11 -4.940954e-01 -5.929095e-02
2.270000e+11 -4.444698e-01 -2.352396e-02
2.280000e+11 -3.889690e-01 -7.154932e-03
2.290000e+11 -3.353824e-01 -1.104929e-02
2.300000e+11 -2.912844e-01 -3.253370e-02
2.310000e+11 -2.623151e-01 -6.586276e-02
2.320000e+11 -2.509195e-01 -1.035157e-01
2.330000e+11 -2.559166e-01 -1.379679e-01
2.340000e+11 -2.730374e-01 -1.634311e-01
2.350000e+11 -2.962708e-01 -1.770520e-01
2.360000e+11 -3.196055e-01 -1.792208e-01
2.370000e+11 -3.386252e-01 -1.729258e-01
2.380000e+11 -3.514752e-01 -1.623965e-01
2.390000e+11 -3.589381e-01 -1.514933e-01
2.400000e+11 -3.636395e-01 -1.423509e-01
2.410000e+11 -3.686568e-01 -1.346866e-01
2.420000e+11 -3.759662e-01 -1.259876e-01
2.430000e+11 -3.852131e-01 -1.125462e-01
2.440000e+11 -3.932238e-01 -9.107341e-02
2.450000e+11 -3.944974e-01 -6.041953e-02
2.460000e+11 -3.826343e-01 -2.285306e-02
2.470000e+11 -3.523634e-01 1.557568e-02
2.480000e+11 -3.016112e-01 4.581866e-02
2.490000e+11 -2.329944e-01 5.767311e-02
2.500000e+11 -1.542381e-01 4.228871e-02
2.510000e+11 -7.725961e-02 -5.267493e-03
2.520000e+11 -1.597969e-02 -8.407771e-02
2.530000e+11 1.673286e-02 -1.866957e-01
2.540000e+11 1.226575e-02 -3.001116e-01
2.550000e+11 -3.128777e-02 -4.083321e-01
2.560000e+11 -1.082728e-01 -4.960297e-01
2.570000e+11 -2.066567e-01 -5.522605e-01
2.580000e+11 -3.110556e-01 -5.730903e-01
2.590000e+11 -4.067386e-01 -5.622375e-01
2.600000e+11 -4.833508e-01 -5.294838e-01
2.610000e+11 -5.371612e-01 -4.873813e-01
2.620000e+11 -5.711598e-01 -4.473671e-01
2.630000e+11 -5.930768e-01 -4.165711e-01
2.640000e+11 -6.120943e-01 -3.963175e-01
2.650000e+11 -6.354326e-01 -3.827084e-01
2.660000e+11 -6.659823e-01 -3.689487e-01
2.670000e+11 -7.017454e-01 -3.484811e-01
2.680000e+11 -7.371797e-01 -3.177395e-01
2.690000e+11 -7.658268e-01 -2.775018e-01
2.700000e+11 -7.831313e-01 -2.323900e-01
2.710000e+11 -7.883075e-01 -1.888116e-01
2.720000e+11 -7.845374e-01 -1.522642e-01
2.730000e+11 -7.774991e-01 -1.251525e-01
2.740000e+11 -7.729256e-01 -1.060082e-01
2.750000e+11 -7.742679e-01 -9.036830e-02
2.760000e+11 -7.814476e-01 -7.285970e-02
2.770000e+11 -7.911773e-01 -4.953907e-02
2.780000e+11 -7.986368e-01 -1.945941e-02
2.790000e+11 -7.996931e-01 1.520132e-02
2.800000e+11 -7.926170e-01 5.044527e-02
