#   Hz   S  RI   R   50
!
1.000000e+09 -9.921049e-01 1.251241e-02
2.000000e+09 -9.931718e-01 2.610976e-02
3.000000e+09 -9.936062e-01 4.110758e-02
4.000000e+09 -9.923606e-01 5.683992e-02
5.000000e+09 -9.891571e-01 7.206180e-02
6.000000e+09 -9.846608e-01 8.563469e-02
7.000000e+09 -9.801750e-01 9.713749e-02
8.000000e+09 -9.770024e-01 1.071444e-01
9.000000e+09 -9.757387e-01 1.170004e-01
1.000000e+10 -9.758878e-01 1.281213e-01
1.100000e+10 -9.761047e-01 1.411847e-01
1.200000e+10 -9.749700e-01 1.557401e-01
1.300000e+10 -9.717969e-01 1.704993e-01
1.400000e+10 -9.669787e-01 1.840887e-01
1.500000e+10 -9.617311e-01 1.957987e-01
1.600000e+10 -9.574139e-01 2.059533e-01
1.700000e+10 -9.547844e-01 2.157265e-01
1.800000e+10 -9.535697e-01 2.264906e-01
1.900000e+10 -9.526188e-01 2.390346e-01
2.000000e+10 -9.505692e-01 2.531175e-01
2.100000e+10 -9.466285e-01 2.676309e-01
2.200000e+10 -9.409985e-01 2.812512e-01
2.300000e+10 -9.347273e-01 2.931819e-01
2.400000e+10 -9.291060e-01 3.035760e-01
2.500000e+10 -9.249492e-01 3.134341e-01
2.600000e+10 -9.221430e-01 3.240343e-01
2.700000e+10 -9.197181e-01 3.362054e-01
2.800000e+10 -9.164148e-01 3.498603e-01
2.900000e+10 -9.114065e-01 3.640683e-01
3.000000e+10 -9.047526e-01 3.776068e-01
3.100000e+10 -8.973348e-01 3.896570e-01
3.200000e+10 -8.903388e-01 4.002487e-01
3.300000e+10 -8.845830e-01 4.102239e-01
3.400000e+10 -8.800613e-01 4.207486e-01
3.500000e+10 -8.759567e-01 4.326437e-01
3.600000e+10 -8.711213e-01 4.459204e-01
3.700000e+10 -8.647395e-01 4.597909e-01
3.800000e+10 -8.567842e-01 4.731384e-01
3.900000e+10 -8.480085e-01 4.851619e-01
4.000000e+10 -8.394966e-01 4.958225e-01
4.100000e+10 -8.320378e-01 5.058503e-01
4.200000e+10 -8.256764e-01 5.163140e-01
4.300000e+10 -8.196917e-01 5.280003e-01
4.400000e+10 -8.130225e-01 5.409581e-01
4.500000e+10 -8.048875e-01 5.544796e-01
4.600000e+10 -7.952339e-01 5.675233e-01
4.700000e+10 -7.847532e-01 5.793253e-01
4.800000e+10 -7.744660e-01 5.898402e-01
4.900000e+10 -7.651183e-01 5.997615e-01
5.000000e+10 -7.567386e-01 6.101112e-01
5.100000e+10 -7.486142e-01 6.216332e-01
5.200000e+10 -7.397079e-01 6.343453e-01
5.300000e+10 -7.292741e-01 6.475224e-01
5.400000e+10 -7.173047e-01 6.601264e-01
5.500000e+10 -7.045357e-01 6.714290e-01
5.600000e+10 -6.920048e-01 6.814573e-01
5.700000e+10 -6.804175e-01 6.909927e-01
5.800000e+10 -6.696936e-01 7.011129e-01
5.900000e+10 -6.589747e-01 7.125338e-01
6.000000e+10 -6.471129e-01 7.251420e-01
6.100000e+10 -6.333636e-01 7.380200e-01
6.200000e+10 -6.178642e-01 7.499765e-01
6.300000e+10 -6.015863e-01 7.602806e-01
6.400000e+10 -5.857562e-01 7.691592e-01
6.500000e+10 -5.710635e-01 7.777288e-01
6.600000e+10 -5.571275e-01 7.873557e-01
6.700000e+10 -5.425836e-01 7.987810e-01
6.800000e+10 -5.258074e-01 8.115373e-01
6.900000e+10 -5.058961e-01 8.240654e-01
7.000000e+10 -4.833111e-01 8.345536e-01
7.100000e+10 -4.597120e-01 8.420664e-01
7.200000e+10 -4.369504e-01 8.472800e-01
7.300000e+10 -4.156987e-01 8.522722e-01
7.400000e+10 -3.945052e-01 8.592749e-01
7.500000e+10 -3.699765e-01 8.688982e-01
7.600000e+10 -3.382954e-01 8.787589e-01
7.700000e+10 -2.975541e-01 8.834302e-01
7.800000e+10 -2.498207e-01 8.760895e-01
7.900000e+10 -2.017888e-01 8.514035e-01
8.000000e+10 -1.633896e-01 8.084936e-01
8.100000e+10 -1.446218e-01 7.526125e-01
8.200000e+10 -1.517064e-01 6.945606e-01
8.300000e+10 -1.841318e-01 6.477383e-01
8.400000e+10 -2.339765e-01 6.237732e-01
8.500000e+10 -2.880510e-01 6.284270e-01
8.600000e+10 -3.321654e-01 6.595296e-01
8.700000e+10 -3.558222e-01 7.078800e-01
8.800000e+10 -3.554070e-01 7.607416e-01
8.900000e+10 -3.346361e-01 8.064391e-01
9.000000e+10 -3.022347e-01 8.381582e-01
9.100000e+10 -2.679707e-01 8.554888e-01
9.200000e+10 -2.387851e-01 8.632688e-01
9.300000e+10 -2.166213e-01 8.684531e-01
9.400000e+10 -1.987260e-01 8.765492e-01
9.500000e+10 -1.800265e-01 8.892649e-01
9.600000e+10 -1.562520e-01 9.043262e-01
9.700000e+10 -1.262173e-01 9.173141e-01
9.800000e+10 -9.222803e-02 9.244007e-01
9.900000e+10 -5.857591e-02 9.245150e-01
1.000000e+11 -2.904900e-02 9.198571e-01
1.010000e+11 -4.833355e-03 9.145833e-01
1.020000e+11 1.607951e-02 9.124491e-01
1.030000e+11 3.770181e-02 9.147256e-01
1.040000e+11 6.376820e-02 9.195270e-01
1.050000e+11 9.563657e-02 9.228987e-01
1.060000e+11 1.315254e-01 9.210489e-01
1.070000e+11 1.675076e-01 9.124932e-01
1.080000e+11 1.997277e-01 8.989228e-01
1.090000e+11 2.266312e-01 8.842873e-01
1.100000e+11 2.499538e-01 8.725501e-01
1.110000e+11 2.738660e-01 8.653385e-01
1.120000e+11 3.026751e-01 8.608126e-01
1.130000e+11 3.383223e-01 8.544581e-01
1.140000e+11 3.790842e-01 8.414573e-01
1.150000e+11 4.202986e-01 8.193893e-01
1.160000e+11 4.568596e-01 7.897397e-01
1.170000e+11 4.862127e-01 7.572278e-01
1.180000e+11 5.101629e-01 7.270846e-01
1.190000e+11 5.342696e-01 7.015878e-01
1.200000e+11 5.647969e-01 6.777561e-01
1.210000e+11 6.045468e-01 6.477282e-01
1.220000e+11 6.496961e-01 6.021027e-01
1.230000e+11 6.895310e-01 5.350009e-01
1.240000e+11 7.097741e-01 4.485545e-01
1.250000e+11 6.985322e-01 3.544604e-01
1.260000e+11 6.524741e-01 2.712824e-01
1.270000e+11 5.803445e-01 2.179945e-01
1.280000e+11 5.017189e-01 2.061302e-01
1.290000e+11 4.408474e-01 2.339065e-01
1.300000e+11 4.177110e-01 2.851894e-01
1.310000e+11 4.398761e-01 3.342147e-01
1.320000e+11 4.985883e-01 3.545143e-01
1.330000e+11 5.708782e-01 3.286937e-01
1.340000e+11 6.270911e-01 2.553369e-01
1.350000e+11 6.412073e-01 1.503677e-01
1.360000e+11 6.002521e-01 4.218509e-02
1.370000e+11 5.093027e-01 -3.786004e-02
1.380000e+11 3.900814e-01 -6.625078e-02
1.390000e+11 2.735306e-01 -3.529357e-02
1.400000e+11 1.892164e-01 4.475643e-02
1.410000e+11 1.557278e-01 1.500857e-01
1.420000e+11 1.756765e-01 2.521619e-01
1.430000e+11 2.367543e-01 3.273121e-01
1.440000e+11 3.177745e-01 3.634525e-01
1.450000e+11 3.968964e-01 3.619259e-01
1.460000e+11 4.588305e-01 3.344533e-01
1.470000e+11 4.986031e-01 2.969305e-01
1.480000e+11 5.209572e-01 2.627271e-01
1.490000e+11 5.361664e-01 2.380631e-01
1.500000e+11 5.543440e-01 2.210024e-01
1.510000e+11 5.807298e-01 2.039997e-01
1.520000e+11 6.137618e-01 1.784931e-01
1.530000e+11 6.463732e-01 1.393763e-01
1.540000e+11 6.695885e-01 8.752018e-02
1.550000e+11 6.767018e-01 2.952651e-02
1.560000e+11 6.663043e-01 -2.493182e-02
1.570000e+11 6.430488e-01 -6.694359e-02
1.580000e+11 6.160051e-01 -9.178826e-02
1.590000e+11 5.953967e-01 -1.006707e-01
1.600000e+11 5.890624e-01 -1.002356e-01
1.610000e+11 5.999475e-01 -1.002333e-01
1.620000e+11 6.253897e-01 -1.103378e-01
1.630000e+11 6.582197e-01 -1.372699e-01
1.640000e+11 6.890981e-01 -1.830832e-01
1.650000e+11 7.092283e-01 -2.449708e-01
1.660000e+11 7.126153e-01 -3.164462e-01
1.670000e+11 6.972988e-01 -3.893913e-01
1.680000e+11 6.653455e-01 -4.562960e-01
1.690000e+11 6.217549e-01 -5.120492e-01
1.700000e+11 5.727120e-01 -5.548367e-01
1.710000e+11 5.237545e-01 -5.860013e-01
1.720000e+11 4.783833e-01 -6.090218e-01
1.730000e+11 4.374778e-01 -6.280038e-01
1.740000e+11 3.996106e-01 -6.461880e-01
1.750000e+11 3.620834e-01 -6.649461e-01
1.760000e+11 3.222787e-01 -6.835606e-01
1.770000e+11 2.788296e-01 -6.998083e-01
1.780000e+11 2.321838e-01 -7.110819e-01
1.790000e+11 1.843729e-01 -7.155792e-01
1.800000e+11 1.381133e-01 -7.130677e-01
1.810000e+11 9.564926e-02 -7.048993e-01
1.820000e+11 5.786891e-02 -6.932781e-01
1.830000e+11 2.412093e-02 -6.801197e-01
1.840000e+11 -7.151665e-03 -6.660544e-01
1.850000e+11 -3.722626e-02 -6.500882e-01
1.860000e+11 -6.591504e-02 -6.301605e-01
1.870000e+11 -9.097930e-02 -6.044292e-01
1.880000e+11 -1.085208e-01 -5.727547e-01
1.890000e+11 -1.143131e-01 -5.377039e-01
1.900000e+11 -1.056013e-01 -5.045459e-01
1.910000e+11 -8.265002e-02 -4.801135e-01
1.920000e+11 -4.937774e-02 -4.708847e-01
1.930000e+11 -1.277218e-02 -4.809756e-01
1.940000e+11 1.874303e-02 -5.107743e-01
1.950000e+11 3.742964e-02 -5.566939e-01
1.960000e+11 3.812787e-02 -6.121075e-01
1.970000e+11 1.931546e-02 -6.691107e-01
1.980000e+11 -1.695382e-02 -7.204916e-01
1.990000e+11 -6.610793e-02 -7.612529e-01
2.000000e+11 -1.226376e-01 -7.892457e-01
2.010000e+11 -1.815884e-01 -8.048554e-01
2.020000e+11 -2.394800e-01 -8.100492e-01
2.030000e+11 -2.944860e-01 -8.072785e-01
2.040000e+11 -3.460417e-01 -7.986733e-01
2.050000e+11 -3.942336e-01 -7.857185e-01
2.060000e+11 -4.393068e-01 -7.693396e-01
2.070000e+11 -4.814531e-01 -7.501569e-01
2.080000e+11 -5.208351e-01 -7.286743e-01
2.090000e+11 -5.576747e-01 -7.052969e-01
2.100000e+11 -5.922440e-01 -6.802423e-01
2.110000e+11 -6.247219e-01 -6.534940e-01
2.120000e+11 -6.550157e-01 -6.249168e-01
2.130000e+11 -6.827152e-01 -5.945196e-01
2.140000e+11 -7.072794e-01 -5.627162e-01
2.150000e+11 -7.284110e-01 -5.303866e-01
2.160000e+11 -7.464187e-01 -4.986257e-01
2.170000e+11 -7.623228e-01 -4.682466e-01
2.180000e+11 -7.775663e-01 -4.392819e-01
2.190000e+11 -7.934005e-01 -4.107800e-01
2.200000e+11 -8.102245e-01 -3.810826e-01
2.210000e+11 -8.272375e-01 -3.485279e-01
2.220000e+11 -8.426579e-01 -3.122747e-01
2.230000e+11 -8.544887e-01 -2.728125e-01
2.240000e+11 -8.615017e-01 -2.318191e-01
2.250000e+11 -8.639217e-01 -1.913303e-01
2.260000e+11 -8.633700e-01 -1.525632e-01
2.270000e+11 -8.619453e-01 -1.149909e-01
2.280000e+11 -8.607639e-01 -7.624342e-02
2.290000e+11 -8.586282e-01 -3.309568e-02
2.300000e+11 -8.515720e-01 1.670088e-02
2.310000e+11 -8.337533e-01 7.246890e-02
2.320000e+11 -7.995946e-01 1.294815e-01
2.330000e+11 -7.464394e-01 1.793896e-01
2.340000e+11 -6.766361e-01 2.123181e-01
2.350000e+11 -5.980721e-01 2.200199e-01
2.360000e+11 -5.227308e-01 1.989855e-01
2.370000e+11 -4.635741e-01 1.523218e-01
2.380000e+11 -4.307034e-01 8.956893e-02
2.390000e+11 -4.281259e-01 2.428876e-02
2.400000e+11 -4.524008e-01 -2.990870e-02
2.410000e+11 -4.938491e-01 -6.350924e-02
2.420000e+11 -5.400030e-01 -7.378475e-02
2.430000e+11 -5.799694e-01 -6.491215e-02
2.440000e+11 -6.079312e-01 -4.549061e-02
2.450000e+11 -6.243934e-01 -2.455060e-02
2.460000e+11 -6.347681e-01 -7.753515e-03
2.470000e+11 -6.460077e-01 4.658158e-03
2.480000e+11 -6.627798e-01 1.736093e-02
2.490000e+11 -6.848568e-01 3.717365e-02
2.500000e+11 -7.068821e-01 6.926329e-02
2.510000e+11 -7.206371e-01 1.140695e-01
2.520000e+11 -7.187853e-01 1.663825e-01
2.530000e+11 -6.983937e-01 2.170303e-01
2.540000e+11 -6.626313e-01 2.564478e-01
2.550000e+11 -6.198723e-01 2.785802e-01
2.560000e+11 -5.805477e-01 2.834397e-01
2.570000e+11 -5.530420e-01 2.772065e-01
2.580000e+11 -5.403445e-01 2.697853e-01
2.590000e+11 -5.388741e-01 2.708036e-01
2.600000e+11 -5.399858e-01 2.857211e-01
2.610000e+11 -5.335124e-01 3.136799e-01
2.620000e+11 -5.118186e-01 3.479566e-01
2.630000e+11 -4.726629e-01 3.787234e-01
2.640000e+11 -4.197603e-01 3.968447e-01
2.650000e+11 -3.609944e-01 3.970797e-01
2.660000e+11 -3.052293e-01 3.794455e-01
2.670000e+11 -2.591679e-01 3.483976e-01
2.680000e+11 -2.255240e-01 3.104330e-01
2.690000e+11 -2.030774e-01 2.713128e-01
2.700000e+11 -1.883181e-01 2.341178e-01
2.710000e+11 -1.777364e-01 1.988472e-01
2.720000e+11 -1.696475e-01 1.635015e-01
2.730000e+11 -1.647881e-01 1.259259e-01
2.740000e+11 -1.656019e-01 8.543376e-02
2.750000e+11 -1.747588e-01 4.348343e-02
2.760000e+11 -1.937252e-01 3.255772e-03
2.770000e+11 -2.220152e-01 -3.147734e-02
2.780000e+11 -2.573012e-01 -5.756211e-02
2.790000e+11 -2.961281e-01 -7.324031e-02
2.800000e+11 -3.347655e-01 -7.833181e-02
