#   Hz   S  RI   R   50
!
1.000000e+11 3.228521e-02 -4.260747e-02 -4.631168e-01 -8.096245e-01 -4.631168e-01 -8.096245e-01 3.228521e-02 -4.260747e-02
1.001000e+11 3.213164e-02 -4.258410e-02 -4.647726e-01 -8.086498e-01 -4.647726e-01 -8.086498e-01 3.213164e-02 -4.258410e-02
1.002000e+11 3.197804e-02 -4.256013e-02 -4.664264e-01 -8.076716e-01 -4.664264e-01 -8.076716e-01 3.197804e-02 -4.256013e-02
1.003000e+11 3.182442e-02 -4.253555e-02 -4.680782e-01 -8.066900e-01 -4.680782e-01 -8.066900e-01 3.182442e-02 -4.253555e-02
1.004000e+11 3.167078e-02 -4.251036e-02 -4.697280e-01 -8.057049e-01 -4.697280e-01 -8.057049e-01 3.167078e-02 -4.251036e-02
1.005000e+11 3.151712e-02 -4.248457e-02 -4.713757e-01 -8.047163e-01 -4.713757e-01 -8.047163e-01 3.151712e-02 -4.248457e-02
1.006000e+11 3.136345e-02 -4.245815e-02 -4.730214e-01 -8.037243e-01 -4.730214e-01 -8.037243e-01 3.136345e-02 -4.245815e-02
1.007000e+11 3.120977e-02 -4.243112e-02 -4.746651e-01 -8.027288e-01 -4.746651e-01 -8.027288e-01 3.120977e-02 -4.243112e-02
1.008000e+11 3.105609e-02 -4.240348e-02 -4.763068e-01 -8.017299e-01 -4.763068e-01 -8.017299e-01 3.105609e-02 -4.240348e-02
1.009000e+11 3.090240e-02 -4.237521e-02 -4.779463e-01 -8.007275e-01 -4.779463e-01 -8.007275e-01 3.090240e-02 -4.237521e-02
1.010000e+11 3.074872e-02 -4.234633e-02 -4.795838e-01 -7.997217e-01 -4.795838e-01 -7.997217e-01 3.074872e-02 -4.234633e-02
1.011000e+11 3.059504e-02 -4.231682e-02 -4.812192e-01 -7.987125e-01 -4.812192e-01 -7.987125e-01 3.059504e-02 -4.231682e-02
1.012000e+11 3.044137e-02 -4.228669e-02 -4.828525e-01 -7.976998e-01 -4.828525e-01 -7.976998e-01 3.044137e-02 -4.228669e-02
1.013000e+11 3.028771e-02 -4.225593e-02 -4.844836e-01 -7.966837e-01 -4.844836e-01 -7.966837e-01 3.028771e-02 -4.225593e-02
1.014000e+11 3.013407e-02 -4.222455e-02 -4.861127e-01 -7.956642e-01 -4.861127e-01 -7.956642e-01 3.013407e-02 -4.222455e-02
1.015000e+11 2.998045e-02 -4.219253e-02 -4.877396e-01 -7.946412e-01 -4.877396e-01 -7.946412e-01 2.998045e-02 -4.219253e-02
1.016000e+11 2.982685e-02 -4.215989e-02 -4.893643e-01 -7.936148e-01 -4.893643e-01 -7.936148e-01 2.982685e-02 -4.215989e-02
1.017000e+11 2.967329e-02 -4.212662e-02 -4.909869e-01 -7.925851e-01 -4.909869e-01 -7.925851e-01 2.967329e-02 -4.212662e-02
1.018000e+11 2.951975e-02 -4.209271e-02 -4.926073e-01 -7.915519e-01 -4.926073e-01 -7.915519e-01 2.951975e-02 -4.209271e-02
1.019000e+11 2.936626e-02 -4.205817e-02 -4.942255e-01 -7.905153e-01 -4.942255e-01 -7.905153e-01 2.936626e-02 -4.205817e-02
1.020000e+11 2.921280e-02 -4.202299e-02 -4.958415e-01 -7.894754e-01 -4.958415e-01 -7.894754e-01 2.921280e-02 -4.202299e-02
1.021000e+11 2.905939e-02 -4.198717e-02 -4.974554e-01 -7.884320e-01 -4.974554e-01 -7.884320e-01 2.905939e-02 -4.198717e-02
1.022000e+11 2.890603e-02 -4.195072e-02 -4.990670e-01 -7.873853e-01 -4.990670e-01 -7.873853e-01 2.890603e-02 -4.195072e-02
1.023000e+11 2.875272e-02 -4.191363e-02 -5.006764e-01 -7.863352e-01 -5.006764e-01 -7.863352e-01 2.875272e-02 -4.191363e-02
1.024000e+11 2.859946e-02 -4.187590e-02 -5.022835e-01 -7.852817e-01 -5.022835e-01 -7.852817e-01 2.859946e-02 -4.187590e-02
1.025000e+11 2.844627e-02 -4.183752e-02 -5.038884e-01 -7.842248e-01 -5.038884e-01 -7.842248e-01 2.844627e-02 -4.183752e-02
1.026000e+11 2.829315e-02 -4.179851e-02 -5.054910e-01 -7.831646e-01 -5.054910e-01 -7.831646e-01 2.829315e-02 -4.179851e-02
1.027000e+11 2.814009e-02 -4.175885e-02 -5.070914e-01 -7.821011e-01 -5.070914e-01 -7.821011e-01 2.814009e-02 -4.175885e-02
1.028000e+11 2.798711e-02 -4.171854e-02 -5.086895e-01 -7.810342e-01 -5.086895e-01 -7.810342e-01 2.798711e-02 -4.171854e-02
1.029000e+11 2.783420e-02 -4.167759e-02 -5.102853e-01 -7.799640e-01 -5.102853e-01 -7.799640e-01 2.783420e-02 -4.167759e-02
1.030000e+11 2.768138e-02 -4.163600e-02 -5.118788e-01 -7.788904e-01 -5.118788e-01 -7.788904e-01 2.768138e-02 -4.163600e-02
1.031000e+11 2.752864e-02 -4.159375e-02 -5.134700e-01 -7.778135e-01 -5.134700e-01 -7.778135e-01 2.752864e-02 -4.159375e-02
1.032000e+11 2.737600e-02 -4.155086e-02 -5.150588e-01 -7.767333e-01 -5.150588e-01 -7.767333e-01 2.737600e-02 -4.155086e-02
1.033000e+11 2.722345e-02 -4.150732e-02 -5.166454e-01 -7.756498e-01 -5.166454e-01 -7.756498e-01 2.722345e-02 -4.150732e-02
1.034000e+11 2.707100e-02 -4.146314e-02 -5.182296e-01 -7.745630e-01 -5.182296e-01 -7.745630e-01 2.707100e-02 -4.146314e-02
1.035000e+11 2.691866e-02 -4.141830e-02 -5.198114e-01 -7.734729e-01 -5.198114e-01 -7.734729e-01 2.691866e-02 -4.141830e-02
1.036000e+11 2.676642e-02 -4.137281e-02 -5.213909e-01 -7.723795e-01 -5.213909e-01 -7.723795e-01 2.676642e-02 -4.137281e-02
1.037000e+11 2.661430e-02 -4.132667e-02 -5.229681e-01 -7.712828e-01 -5.229681e-01 -7.712828e-01 2.661430e-02 -4.132667e-02
1.038000e+11 2.646229e-02 -4.127988e-02 -5.245428e-01 -7.701829e-01 -5.245428e-01 -7.701829e-01 2.646229e-02 -4.127988e-02
1.039000e+11 2.631041e-02 -4.123243e-02 -5.261152e-01 -7.690797e-01 -5.261152e-01 -7.690797e-01 2.631041e-02 -4.123243e-02
1.040000e+11 2.615865e-02 -4.118434e-02 -5.276852e-01 -7.679732e-01 -5.276852e-01 -7.679732e-01 2.615865e-02 -4.118434e-02
1.041000e+11 2.600702e-02 -4.113559e-02 -5.292528e-01 -7.668635e-01 -5.292528e-01 -7.668635e-01 2.600702e-02 -4.113559e-02
1.042000e+11 2.585553e-02 -4.108619e-02 -5.308180e-01 -7.657505e-01 -5.308180e-01 -7.657505e-01 2.585553e-02 -4.108619e-02
1.043000e+11 2.570418e-02 -4.103614e-02 -5.323808e-01 -7.646343e-01 -5.323808e-01 -7.646343e-01 2.570418e-02 -4.103614e-02
1.044000e+11 2.555297e-02 -4.098543e-02 -5.339411e-01 -7.635149e-01 -5.339411e-01 -7.635149e-01 2.555297e-02 -4.098543e-02
1.045000e+11 2.540191e-02 -4.093408e-02 -5.354990e-01 -7.623922e-01 -5.354990e-01 -7.623922e-01 2.540191e-02 -4.093408e-02
1.046000e+11 2.525100e-02 -4.088206e-02 -5.370545e-01 -7.612664e-01 -5.370545e-01 -7.612664e-01 2.525100e-02 -4.088206e-02
1.047000e+11 2.510025e-02 -4.082940e-02 -5.386075e-01 -7.601373e-01 -5.386075e-01 -7.601373e-01 2.510025e-02 -4.082940e-02
1.048000e+11 2.494966e-02 -4.077608e-02 -5.401581e-01 -7.590051e-01 -5.401581e-01 -7.590051e-01 2.494966e-02 -4.077608e-02
1.049000e+11 2.479924e-02 -4.072211e-02 -5.417062e-01 -7.578696e-01 -5.417062e-01 -7.578696e-01 2.479924e-02 -4.072211e-02
1.050000e+11 2.464899e-02 -4.066748e-02 -5.432519e-01 -7.567310e-01 -5.432519e-01 -7.567310e-01 2.464899e-02 -4.066748e-02
1.051000e+11 2.449892e-02 -4.061221e-02 -5.447950e-01 -7.555892e-01 -5.447950e-01 -7.555892e-01 2.449892e-02 -4.061221e-02
1.052000e+11 2.434902e-02 -4.055628e-02 -5.463357e-01 -7.544443e-01 -5.463357e-01 -7.544443e-01 2.434902e-02 -4.055628e-02
1.053000e+11 2.419931e-02 -4.049970e-02 -5.478739e-01 -7.532962e-01 -5.478739e-01 -7.532962e-01 2.419931e-02 -4.049970e-02
1.054000e+11 2.404979e-02 -4.044246e-02 -5.494096e-01 -7.521449e-01 -5.494096e-01 -7.521449e-01 2.404979e-02 -4.044246e-02
1.055000e+11 2.390047e-02 -4.038458e-02 -5.509428e-01 -7.509906e-01 -5.509428e-01 -7.509906e-01 2.390047e-02 -4.038458e-02
1.056000e+11 2.375134e-02 -4.032605e-02 -5.524735e-01 -7.498330e-01 -5.524735e-01 -7.498330e-01 2.375134e-02 -4.032605e-02
1.057000e+11 2.360241e-02 -4.026686e-02 -5.540017e-01 -7.486724e-01 -5.540017e-01 -7.486724e-01 2.360241e-02 -4.026686e-02
1.058000e+11 2.345369e-02 -4.020703e-02 -5.555273e-01 -7.475087e-01 -5.555273e-01 -7.475087e-01 2.345369e-02 -4.020703e-02
1.059000e+11 2.330519e-02 -4.014654e-02 -5.570504e-01 -7.463418e-01 -5.570504e-01 -7.463418e-01 2.330519e-02 -4.014654e-02
1.060000e+11 2.315689e-02 -4.008541e-02 -5.585710e-01 -7.451719e-01 -5.585710e-01 -7.451719e-01 2.315689e-02 -4.008541e-02
1.061000e+11 2.300882e-02 -4.002363e-02 -5.600890e-01 -7.439988e-01 -5.600890e-01 -7.439988e-01 2.300882e-02 -4.002363e-02
1.062000e+11 2.286098e-02 -3.996120e-02 -5.616045e-01 -7.428227e-01 -5.616045e-01 -7.428227e-01 2.286098e-02 -3.996120e-02
1.063000e+11 2.271336e-02 -3.989813e-02 -5.631174e-01 -7.416435e-01 -5.631174e-01 -7.416435e-01 2.271336e-02 -3.989813e-02
1.064000e+11 2.256598e-02 -3.983441e-02 -5.646278e-01 -7.404613e-01 -5.646278e-01 -7.404613e-01 2.256598e-02 -3.983441e-02
1.065000e+11 2.241883e-02 -3.977005e-02 -5.661356e-01 -7.392760e-01 -5.661356e-01 -7.392760e-01 2.241883e-02 -3.977005e-02
1.066000e+11 2.227193e-02 -3.970505e-02 -5.676409e-01 -7.380876e-01 -5.676409e-01 -7.380876e-01 2.227193e-02 -3.970505e-02
1.067000e+11 2.212528e-02 -3.963940e-02 -5.691435e-01 -7.368962e-01 -5.691435e-01 -7.368962e-01 2.212528e-02 -3.963940e-02
1.068000e+11 2.197887e-02 -3.957311e-02 -5.706436e-01 -7.357018e-01 -5.706436e-01 -7.357018e-01 2.197887e-02 -3.957311e-02
1.069000e+11 2.183273e-02 -3.950618e-02 -5.721411e-01 -7.345043e-01 -5.721411e-01 -7.345043e-01 2.183273e-02 -3.950618e-02
1.070000e+11 2.168684e-02 -3.943861e-02 -5.736360e-01 -7.333039e-01 -5.736360e-01 -7.333039e-01 2.168684e-02 -3.943861e-02
1.071000e+11 2.154122e-02 -3.937041e-02 -5.751283e-01 -7.321004e-01 -5.751283e-01 -7.321004e-01 2.154122e-02 -3.937041e-02
1.072000e+11 2.139587e-02 -3.930157e-02 -5.766181e-01 -7.308939e-01 -5.766181e-01 -7.308939e-01 2.139587e-02 -3.930157e-02
1.073000e+11 2.125079e-02 -3.923209e-02 -5.781052e-01 -7.296845e-01 -5.781052e-01 -7.296845e-01 2.125079e-02 -3.923209e-02
1.074000e+11 2.110599e-02 -3.916198e-02 -5.795897e-01 -7.284720e-01 -5.795897e-01 -7.284720e-01 2.110599e-02 -3.916198e-02
1.075000e+11 2.096147e-02 -3.909124e-02 -5.810715e-01 -7.272566e-01 -5.810715e-01 -7.272566e-01 2.096147e-02 -3.909124e-02
1.076000e+11 2.081724e-02 -3.901987e-02 -5.825508e-01 -7.260382e-01 -5.825508e-01 -7.260382e-01 2.081724e-02 -3.901987e-02
1.077000e+11 2.067329e-02 -3.894787e-02 -5.840274e-01 -7.248169e-01 -5.840274e-01 -7.248169e-01 2.067329e-02 -3.894787e-02
1.078000e+11 2.052965e-02 -3.887524e-02 -5.855014e-01 -7.235926e-01 -5.855014e-01 -7.235926e-01 2.052965e-02 -3.887524e-02
1.079000e+11 2.038630e-02 -3.880198e-02 -5.869728e-01 -7.223653e-01 -5.869728e-01 -7.223653e-01 2.038630e-02 -3.880198e-02
1.080000e+11 2.024325e-02 -3.872810e-02 -5.884416e-01 -7.211352e-01 -5.884416e-01 -7.211352e-01 2.024325e-02 -3.872810e-02
1.081000e+11 2.010052e-02 -3.865360e-02 -5.899077e-01 -7.199021e-01 -5.899077e-01 -7.199021e-01 2.010052e-02 -3.865360e-02
1.082000e+11 1.995809e-02 -3.857848e-02 -5.913711e-01 -7.186661e-01 -5.913711e-01 -7.186661e-01 1.995809e-02 -3.857848e-02
1.083000e+11 1.981598e-02 -3.850274e-02 -5.928319e-01 -7.174271e-01 -5.928319e-01 -7.174271e-01 1.981598e-02 -3.850274e-02
1.084000e+11 1.967419e-02 -3.842638e-02 -5.942901e-01 -7.161853e-01 -5.942901e-01 -7.161853e-01 1.967419e-02 -3.842638e-02
1.085000e+11 1.953272e-02 -3.834940e-02 -5.957456e-01 -7.149405e-01 -5.957456e-01 -7.149405e-01 1.953272e-02 -3.834940e-02
1.086000e+11 1.939159e-02 -3.827181e-02 -5.971984e-01 -7.136929e-01 -5.971984e-01 -7.136929e-01 1.939159e-02 -3.827181e-02
1.087000e+11 1.925078e-02 -3.819362e-02 -5.986486e-01 -7.124424e-01 -5.986486e-01 -7.124424e-01 1.925078e-02 -3.819362e-02
1.088000e+11 1.911031e-02 -3.811481e-02 -6.000961e-01 -7.111890e-01 -6.000961e-01 -7.111890e-01 1.911031e-02 -3.811481e-02
1.089000e+11 1.897018e-02 -3.803539e-02 -6.015409e-01 -7.099328e-01 -6.015409e-01 -7.099328e-01 1.897018e-02 -3.803539e-02
1.090000e+11 1.883040e-02 -3.795537e-02 -6.029831e-01 -7.086737e-01 -6.029831e-01 -7.086737e-01 1.883040e-02 -3.795537e-02
1.091000e+11 1.869096e-02 -3.787474e-02 -6.044225e-01 -7.074117e-01 -6.044225e-01 -7.074117e-01 1.869096e-02 -3.787474e-02
1.092000e+11 1.855187e-02 -3.779352e-02 -6.058593e-01 -7.061469e-01 -6.058593e-01 -7.061469e-01 1.855187e-02 -3.779352e-02
1.093000e+11 1.841314e-02 -3.771169e-02 -6.072934e-01 -7.048792e-01 -6.072934e-01 -7.048792e-01 1.841314e-02 -3.771169e-02
1.094000e+11 1.827477e-02 -3.762927e-02 -6.087249e-01 -7.036088e-01 -6.087249e-01 -7.036088e-01 1.827477e-02 -3.762927e-02
1.095000e+11 1.813677e-02 -3.754626e-02 -6.101536e-01 -7.023355e-01 -6.101536e-01 -7.023355e-01 1.813677e-02 -3.754626e-02
1.096000e+11 1.799913e-02 -3.746265e-02 -6.115796e-01 -7.010593e-01 -6.115796e-01 -7.010593e-01 1.799913e-02 -3.746265e-02
1.097000e+11 1.786186e-02 -3.737846e-02 -6.130030e-01 -6.997804e-01 -6.130030e-01 -6.997804e-01 1.786186e-02 -3.737846e-02
1.098000e+11 1.772496e-02 -3.729367e-02 -6.144236e-01 -6.984987e-01 -6.144236e-01 -6.984987e-01 1.772496e-02 -3.729367e-02
1.099000e+11 1.758845e-02 -3.720830e-02 -6.158415e-01 -6.972141e-01 -6.158415e-01 -6.972141e-01 1.758845e-02 -3.720830e-02
1.100000e+11 1.745232e-02 -3.712235e-02 -6.172568e-01 -6.959268e-01 -6.172568e-01 -6.959268e-01 1.745232e-02 -3.712235e-02
1.101000e+11 1.731657e-02 -3.703582e-02 -6.186693e-01 -6.946367e-01 -6.186693e-01 -6.946367e-01 1.731657e-02 -3.703582e-02
1.102000e+11 1.718121e-02 -3.694872e-02 -6.200791e-01 -6.933438e-01 -6.200791e-01 -6.933438e-01 1.718121e-02 -3.694872e-02
1.103000e+11 1.704625e-02 -3.686104e-02 -6.214862e-01 -6.920481e-01 -6.214862e-01 -6.920481e-01 1.704625e-02 -3.686104e-02
1.104000e+11 1.691168e-02 -3.677278e-02 -6.228905e-01 -6.907497e-01 -6.228905e-01 -6.907497e-01 1.691168e-02 -3.677278e-02
1.105000e+11 1.677751e-02 -3.668396e-02 -6.242922e-01 -6.894485e-01 -6.242922e-01 -6.894485e-01 1.677751e-02 -3.668396e-02
1.106000e+11 1.664375e-02 -3.659457e-02 -6.256911e-01 -6.881446e-01 -6.256911e-01 -6.881446e-01 1.664375e-02 -3.659457e-02
1.107000e+11 1.651039e-02 -3.650462e-02 -6.270873e-01 -6.868379e-01 -6.270873e-01 -6.868379e-01 1.651039e-02 -3.650462e-02
1.108000e+11 1.637744e-02 -3.641411e-02 -6.284807e-01 -6.855284e-01 -6.284807e-01 -6.855284e-01 1.637744e-02 -3.641411e-02
1.109000e+11 1.624491e-02 -3.632304e-02 -6.298714e-01 -6.842163e-01 -6.298714e-01 -6.842163e-01 1.624491e-02 -3.632304e-02
1.110000e+11 1.611279e-02 -3.623141e-02 -6.312594e-01 -6.829014e-01 -6.312594e-01 -6.829014e-01 1.611279e-02 -3.623141e-02
1.111000e+11 1.598110e-02 -3.613923e-02 -6.326447e-01 -6.815838e-01 -6.326447e-01 -6.815838e-01 1.598110e-02 -3.613923e-02
1.112000e+11 1.584983e-02 -3.604650e-02 -6.340272e-01 -6.802635e-01 -6.340272e-01 -6.802635e-01 1.584983e-02 -3.604650e-02
1.113000e+11 1.571898e-02 -3.595323e-02 -6.354069e-01 -6.789404e-01 -6.354069e-01 -6.789404e-01 1.571898e-02 -3.595323e-02
1.114000e+11 1.558857e-02 -3.585941e-02 -6.367839e-01 -6.776147e-01 -6.367839e-01 -6.776147e-01 1.558857e-02 -3.585941e-02
1.115000e+11 1.545859e-02 -3.576505e-02 -6.381582e-01 -6.762862e-01 -6.381582e-01 -6.762862e-01 1.545859e-02 -3.576505e-02
1.116000e+11 1.532904e-02 -3.567015e-02 -6.395297e-01 -6.749551e-01 -6.395297e-01 -6.749551e-01 1.532904e-02 -3.567015e-02
1.117000e+11 1.519993e-02 -3.557472e-02 -6.408984e-01 -6.736213e-01 -6.408984e-01 -6.736213e-01 1.519993e-02 -3.557472e-02
1.118000e+11 1.507127e-02 -3.547876e-02 -6.422644e-01 -6.722848e-01 -6.422644e-01 -6.722848e-01 1.507127e-02 -3.547876e-02
1.119000e+11 1.494305e-02 -3.538226e-02 -6.436277e-01 -6.709456e-01 -6.436277e-01 -6.709456e-01 1.494305e-02 -3.538226e-02
1.120000e+11 1.481529e-02 -3.528525e-02 -6.449881e-01 -6.696038e-01 -6.449881e-01 -6.696038e-01 1.481529e-02 -3.528525e-02
1.121000e+11 1.468797e-02 -3.518771e-02 -6.463458e-01 -6.682593e-01 -6.463458e-01 -6.682593e-01 1.468797e-02 -3.518771e-02
1.122000e+11 1.456110e-02 -3.508965e-02 -6.477007e-01 -6.669121e-01 -6.477007e-01 -6.669121e-01 1.456110e-02 -3.508965e-02
1.123000e+11 1.443470e-02 -3.499107e-02 -6.490529e-01 -6.655623e-01 -6.490529e-01 -6.655623e-01 1.443470e-02 -3.499107e-02
1.124000e+11 1.430875e-02 -3.489198e-02 -6.504022e-01 -6.642098e-01 -6.504022e-01 -6.642098e-01 1.430875e-02 -3.489198e-02
1.125000e+11 1.418327e-02 -3.479238e-02 -6.517488e-01 -6.628547e-01 -6.517488e-01 -6.628547e-01 1.418327e-02 -3.479238e-02
1.126000e+11 1.405825e-02 -3.469228e-02 -6.530927e-01 -6.614970e-01 -6.530927e-01 -6.614970e-01 1.405825e-02 -3.469228e-02
1.127000e+11 1.393370e-02 -3.459167e-02 -6.544337e-01 -6.601366e-01 -6.544337e-01 -6.601366e-01 1.393370e-02 -3.459167e-02
1.128000e+11 1.380963e-02 -3.449057e-02 -6.557719e-01 -6.587736e-01 -6.557719e-01 -6.587736e-01 1.380963e-02 -3.449057e-02
1.129000e+11 1.368602e-02 -3.438896e-02 -6.571074e-01 -6.574079e-01 -6.571074e-01 -6.574079e-01 1.368602e-02 -3.438896e-02
1.130000e+11 1.356289e-02 -3.428687e-02 -6.584400e-01 -6.560397e-01 -6.584400e-01 -6.560397e-01 1.356289e-02 -3.428687e-02
1.131000e+11 1.344024e-02 -3.418428e-02 -6.597699e-01 -6.546688e-01 -6.597699e-01 -6.546688e-01 1.344024e-02 -3.418428e-02
1.132000e+11 1.331808e-02 -3.408121e-02 -6.610970e-01 -6.532953e-01 -6.610970e-01 -6.532953e-01 1.331808e-02 -3.408121e-02
1.133000e+11 1.319639e-02 -3.397765e-02 -6.624212e-01 -6.519192e-01 -6.624212e-01 -6.519192e-01 1.319639e-02 -3.397765e-02
1.134000e+11 1.307519e-02 -3.387362e-02 -6.637427e-01 -6.505405e-01 -6.637427e-01 -6.505405e-01 1.307519e-02 -3.387362e-02
1.135000e+11 1.295448e-02 -3.376911e-02 -6.650613e-01 -6.491593e-01 -6.650613e-01 -6.491593e-01 1.295448e-02 -3.376911e-02
1.136000e+11 1.283427e-02 -3.366412e-02 -6.663772e-01 -6.477754e-01 -6.663772e-01 -6.477754e-01 1.283427e-02 -3.366412e-02
1.137000e+11 1.271454e-02 -3.355867e-02 -6.676902e-01 -6.463889e-01 -6.676902e-01 -6.463889e-01 1.271454e-02 -3.355867e-02
1.138000e+11 1.259531e-02 -3.345275e-02 -6.690004e-01 -6.449999e-01 -6.690004e-01 -6.449999e-01 1.259531e-02 -3.345275e-02
1.139000e+11 1.247658e-02 -3.334637e-02 -6.703078e-01 -6.436083e-01 -6.703078e-01 -6.436083e-01 1.247658e-02 -3.334637e-02
1.140000e+11 1.235835e-02 -3.323953e-02 -6.716124e-01 -6.422141e-01 -6.716124e-01 -6.422141e-01 1.235835e-02 -3.323953e-02
1.141000e+11 1.224061e-02 -3.313223e-02 -6.729141e-01 -6.408174e-01 -6.729141e-01 -6.408174e-01 1.224061e-02 -3.313223e-02
1.142000e+11 1.212339e-02 -3.302448e-02 -6.742130e-01 -6.394181e-01 -6.742130e-01 -6.394181e-01 1.212339e-02 -3.302448e-02
1.143000e+11 1.200667e-02 -3.291629e-02 -6.755091e-01 -6.380162e-01 -6.755091e-01 -6.380162e-01 1.200667e-02 -3.291629e-02
1.144000e+11 1.189046e-02 -3.280765e-02 -6.768023e-01 -6.366118e-01 -6.768023e-01 -6.366118e-01 1.189046e-02 -3.280765e-02
1.145000e+11 1.177476e-02 -3.269856e-02 -6.780927e-01 -6.352048e-01 -6.780927e-01 -6.352048e-01 1.177476e-02 -3.269856e-02
1.146000e+11 1.165957e-02 -3.258905e-02 -6.793803e-01 -6.337953e-01 -6.793803e-01 -6.337953e-01 1.165957e-02 -3.258905e-02
1.147000e+11 1.154489e-02 -3.247909e-02 -6.806650e-01 -6.323832e-01 -6.806650e-01 -6.323832e-01 1.154489e-02 -3.247909e-02
1.148000e+11 1.143073e-02 -3.236871e-02 -6.819469e-01 -6.309686e-01 -6.819469e-01 -6.309686e-01 1.143073e-02 -3.236871e-02
1.149000e+11 1.131709e-02 -3.225790e-02 -6.832259e-01 -6.295515e-01 -6.832259e-01 -6.295515e-01 1.131709e-02 -3.225790e-02
1.150000e+11 1.120397e-02 -3.214666e-02 -6.845021e-01 -6.281318e-01 -6.845021e-01 -6.281318e-01 1.120397e-02 -3.214666e-02
1.151000e+11 1.109137e-02 -3.203501e-02 -6.857754e-01 -6.267097e-01 -6.857754e-01 -6.267097e-01 1.109137e-02 -3.203501e-02
1.152000e+11 1.097929e-02 -3.192294e-02 -6.870458e-01 -6.252850e-01 -6.870458e-01 -6.252850e-01 1.097929e-02 -3.192294e-02
1.153000e+11 1.086774e-02 -3.181045e-02 -6.883134e-01 -6.238577e-01 -6.883134e-01 -6.238577e-01 1.086774e-02 -3.181045e-02
1.154000e+11 1.075672e-02 -3.169756e-02 -6.895781e-01 -6.224280e-01 -6.895781e-01 -6.224280e-01 1.075672e-02 -3.169756e-02
1.155000e+11 1.064622e-02 -3.158427e-02 -6.908399e-01 -6.209958e-01 -6.908399e-01 -6.209958e-01 1.064622e-02 -3.158427e-02
1.156000e+11 1.053625e-02 -3.147057e-02 -6.920989e-01 -6.195610e-01 -6.920989e-01 -6.195610e-01 1.053625e-02 -3.147057e-02
1.157000e+11 1.042682e-02 -3.135647e-02 -6.933549e-01 -6.181238e-01 -6.933549e-01 -6.181238e-01 1.042682e-02 -3.135647e-02
1.158000e+11 1.031791e-02 -3.124198e-02 -6.946081e-01 -6.166840e-01 -6.946081e-01 -6.166840e-01 1.031791e-02 -3.124198e-02
1.159000e+11 1.020954e-02 -3.112710e-02 -6.958584e-01 -6.152418e-01 -6.958584e-01 -6.152418e-01 1.020954e-02 -3.112710e-02
1.160000e+11 1.010171e-02 -3.101183e-02 -6.971058e-01 -6.137971e-01 -6.971058e-01 -6.137971e-01 1.010171e-02 -3.101183e-02
1.161000e+11 9.994408e-03 -3.089618e-02 -6.983503e-01 -6.123499e-01 -6.983503e-01 -6.123499e-01 9.994408e-03 -3.089618e-02
