#   Hz   S  RI   R   50
!
1.000000e+09 -9.861898e-01 8.734778e-03
2.000000e+09 -9.902395e-01 1.966351e-02
3.000000e+09 -9.947531e-01 3.399328e-02
4.000000e+09 -9.974549e-01 5.145062e-02
5.000000e+09 -9.967183e-01 7.045424e-02
6.000000e+09 -9.921747e-01 8.878130e-02
7.000000e+09 -9.848197e-01 1.044111e-01
8.000000e+09 -9.766473e-01 1.162607e-01
9.000000e+09 -9.699400e-01 1.246000e-01
1.000000e+10 -9.664243e-01 1.309996e-01
1.100000e+10 -9.665807e-01 1.377749e-01
1.200000e+10 -9.694136e-01 1.470899e-01
1.300000e+10 -9.728330e-01 1.600829e-01
1.400000e+10 -9.745044e-01 1.764159e-01
1.500000e+10 -9.727835e-01 1.944470e-01
1.600000e+10 -9.673315e-01 2.119189e-01
1.700000e+10 -9.591920e-01 2.268453e-01
1.800000e+10 -9.503511e-01 2.382497e-01
1.900000e+10 -9.429683e-01 2.465081e-01
2.000000e+10 -9.385568e-01 2.531888e-01
2.100000e+10 -9.374053e-01 2.604419e-01
2.200000e+10 -9.384731e-01 2.701578e-01
2.300000e+10 -9.398131e-01 2.832254e-01
2.400000e+10 -9.393575e-01 2.992021e-01
2.500000e+10 -9.357307e-01 3.165244e-01
2.600000e+10 -9.287573e-01 3.331530e-01
2.700000e+10 -9.194853e-01 3.473710e-01
2.800000e+10 -9.097459e-01 3.584243e-01
2.900000e+10 -9.014369e-01 3.667801e-01
3.000000e+10 -8.957985e-01 3.739218e-01
3.100000e+10 -8.929491e-01 3.817610e-01
3.200000e+10 -8.918586e-01 3.918902e-01
3.300000e+10 -8.907715e-01 4.049700e-01
3.400000e+10 -8.879076e-01 4.204948e-01
3.500000e+10 -8.821523e-01 4.370238e-01
3.600000e+10 -8.734625e-01 4.527664e-01
3.700000e+10 -8.628459e-01 4.662792e-01
3.800000e+10 -8.519422e-01 4.770033e-01
3.900000e+10 -8.423808e-01 4.854512e-01
4.000000e+10 -8.351589e-01 4.929847e-01
4.100000e+10 -8.302714e-01 5.012740e-01
4.200000e+10 -8.267334e-01 5.116464e-01
4.300000e+10 -8.229817e-01 5.245808e-01
4.400000e+10 -8.174932e-01 5.395427e-01
4.500000e+10 -8.093700e-01 5.552187e-01
4.600000e+10 -7.986648e-01 5.700441e-01
4.700000e+10 -7.863301e-01 5.828081e-01
4.800000e+10 -7.738276e-01 5.931053e-01
4.900000e+10 -7.625558e-01 6.014687e-01
5.000000e+10 -7.533148e-01 6.091430e-01
5.100000e+10 -7.460098e-01 6.175915e-01
5.200000e+10 -7.397041e-01 6.279260e-01
5.300000e+10 -7.329964e-01 6.404837e-01
5.400000e+10 -7.245713e-01 6.547135e-01
5.500000e+10 -7.137025e-01 6.694087e-01
5.600000e+10 -7.005151e-01 6.831869e-01
5.700000e+10 -6.859135e-01 6.950243e-01
5.800000e+10 -6.712134e-01 7.046372e-01
5.900000e+10 -6.576251e-01 7.125735e-01
6.000000e+10 -6.457876e-01 7.199839e-01
6.100000e+10 -6.355291e-01 7.281645e-01
6.200000e+10 -6.259445e-01 7.380512e-01
6.300000e+10 -6.157560e-01 7.498606e-01
6.400000e+10 -6.038126e-01 7.630181e-01
6.500000e+10 -5.895286e-01 7.763941e-01
6.600000e+10 -5.730937e-01 7.887511e-01
6.700000e+10 -5.553761e-01 7.992211e-01
6.800000e+10 -5.375661e-01 8.076297e-01
6.900000e+10 -5.207014e-01 8.145442e-01
7.000000e+10 -5.052588e-01 8.210335e-01
7.100000e+10 -4.909707e-01 8.282343e-01
7.200000e+10 -4.769354e-01 8.368973e-01
7.300000e+10 -4.619741e-01 8.470913e-01
7.400000e+10 -4.450894e-01 8.581821e-01
7.500000e+10 -4.258386e-01 8.690890e-01
7.600000e+10 -4.044718e-01 8.787091e-01
7.700000e+10 -3.817848e-01 8.863308e-01
7.800000e+10 -3.587515e-01 8.918663e-01
7.900000e+10 -3.360933e-01 8.958047e-01
8.000000e+10 -3.139713e-01 8.989010e-01
8.100000e+10 -2.919441e-01 9.017317e-01
8.200000e+10 -2.692267e-01 9.043071e-01
8.300000e+10 -2.451617e-01 9.059259e-01
8.400000e+10 -2.197122e-01 9.053661e-01
8.500000e+10 -1.937587e-01 9.013716e-01
8.600000e+10 -1.690447e-01 8.932695e-01
8.700000e+10 -1.477387e-01 8.814796e-01
8.800000e+10 -1.317310e-01 8.676978e-01
8.900000e+10 -1.218948e-01 8.546351e-01
9.000000e+10 -1.175824e-01 8.453469e-01
9.100000e+10 -1.165691e-01 8.423421e-01
9.200000e+10 -1.155169e-01 8.467655e-01
9.300000e+10 -1.108453e-01 8.579465e-01
9.400000e+10 -9.974015e-02 8.734981e-01
9.500000e+10 -8.096403e-02 8.899641e-01
9.600000e+10 -5.518765e-02 9.038180e-01
9.700000e+10 -2.472014e-02 9.124894e-01
9.800000e+10 7.282274e-03 9.150774e-01
9.900000e+10 3.787085e-02 9.125092e-01
1.000000e+11 6.526926e-02 9.070858e-01
1.010000e+11 8.941724e-02 9.015644e-01
1.020000e+11 1.118980e-01 8.980933e-01
1.030000e+11 1.352675e-01 8.973780e-01
1.040000e+11 1.620211e-01 8.983857e-01
1.050000e+11 1.935739e-01 8.987064e-01
1.060000e+11 2.296346e-01 8.954493e-01
1.070000e+11 2.682185e-01 8.863528e-01
1.080000e+11 3.063196e-01 8.706990e-01
1.090000e+11 3.410197e-01 8.496762e-01
1.100000e+11 3.706430e-01 8.260175e-01
1.110000e+11 3.955192e-01 8.029930e-01
1.120000e+11 4.180268e-01 7.830837e-01
1.130000e+11 4.418251e-01 7.668077e-01
1.140000e+11 4.704776e-01 7.521620e-01
1.150000e+11 5.059089e-01 7.349553e-01
1.160000e+11 5.472373e-01 7.100148e-01
1.170000e+11 5.904380e-01 6.729394e-01
1.180000e+11 6.290444e-01 6.218635e-01
1.190000e+11 6.557756e-01 5.586505e-01
1.200000e+11 6.646704e-01 4.890658e-01
1.210000e+11 6.531135e-01 4.217616e-01
1.220000e+11 6.231147e-01 3.662571e-01
1.230000e+11 5.813729e-01 3.304349e-01
1.240000e+11 5.380015e-01 3.182679e-01
1.250000e+11 5.042059e-01 3.284745e-01
1.260000e+11 4.895459e-01 3.545390e-01
1.270000e+11 4.995637e-01 3.861244e-01
1.280000e+11 5.344447e-01 4.114814e-01
1.290000e+11 5.890618e-01 4.201727e-01
1.300000e+11 6.543423e-01 4.053674e-01
1.310000e+11 7.195325e-01 3.651142e-01
1.320000e+11 7.747056e-01 3.023151e-01
1.330000e+11 8.128295e-01 2.234934e-01
1.340000e+11 8.308627e-01 1.367782e-01
1.350000e+11 8.296522e-01 4.973656e-02
1.360000e+11 8.127709e-01 -3.230597e-02
1.370000e+11 7.847496e-01 -1.069934e-01
1.380000e+11 7.493250e-01 -1.745820e-01
1.390000e+11 7.082851e-01 -2.367221e-01
1.400000e+11 6.612600e-01 -2.948804e-01
1.410000e+11 6.064691e-01 -3.489972e-01
1.420000e+11 5.421053e-01 -3.968701e-01
1.430000e+11 4.678244e-01 -4.344881e-01
1.440000e+11 3.857782e-01 -4.572069e-01
1.450000e+11 3.007891e-01 -4.613596e-01
1.460000e+11 2.195566e-01 -4.457424e-01
1.470000e+11 1.491215e-01 -4.124452e-01
1.480000e+11 9.507172e-02 -3.667152e-01
1.490000e+11 6.006697e-02 -3.158601e-01
1.500000e+11 4.315309e-02 -2.675186e-01
1.510000e+11 4.008150e-02 -2.278222e-01
1.520000e+11 4.452747e-02 -1.999979e-01
1.530000e+11 4.983076e-02 -1.838078e-01
1.540000e+11 5.073894e-02 -1.759603e-01
1.550000e+11 4.465356e-02 -1.713297e-01
1.560000e+11 3.204633e-02 -1.645932e-01
1.570000e+11 1.597465e-02 -1.517841e-01
1.580000e+11 9.012615e-04 -1.313089e-01
1.590000e+11 -8.773002e-03 -1.041658e-01
1.600000e+11 -9.989525e-03 -7.336964e-02
1.610000e+11 -1.745120e-03 -4.284132e-02
1.620000e+11 1.492602e-02 -1.617434e-02
1.630000e+11 3.760968e-02 4.306590e-03
1.640000e+11 6.351103e-02 1.791600e-02
1.650000e+11 9.040997e-02 2.534852e-02
1.660000e+11 1.172356e-01 2.795493e-02
1.670000e+11 1.440832e-01 2.687034e-02
1.680000e+11 1.717108e-01 2.234563e-02
1.690000e+11 2.007439e-01 1.354253e-02
1.700000e+11 2.309236e-01 -1.130092e-03
1.710000e+11 2.607106e-01 -2.326940e-02
1.720000e+11 2.874277e-01 -5.361046e-02
1.730000e+11 3.079180e-01 -9.137834e-02
1.740000e+11 3.195066e-01 -1.341309e-01
1.750000e+11 3.209298e-01 -1.781952e-01
1.760000e+11 3.128917e-01 -2.195912e-01
1.770000e+11 2.980191e-01 -2.551601e-01
1.780000e+11 2.801833e-01 -2.835219e-01
1.790000e+11 2.633728e-01 -3.055277e-01
1.800000e+11 2.504703e-01 -3.240262e-01
1.810000e+11 2.423283e-01 -3.429913e-01
1.820000e+11 2.374519e-01 -3.662758e-01
1.830000e+11 2.323995e-01 -3.963793e-01
1.840000e+11 2.227778e-01 -4.336176e-01
1.850000e+11 2.045217e-01 -4.759473e-01
1.860000e+11 1.750633e-01 -5.194946e-01
1.870000e+11 1.340282e-01 -5.596134e-01
1.880000e+11 8.325290e-02 -5.921320e-01
1.890000e+11 2.613174e-02 -6.143835e-01
1.900000e+11 -3.346879e-02 -6.256891e-01
1.910000e+11 -9.234407e-02 -6.271477e-01
1.920000e+11 -1.487322e-01 -6.208353e-01
1.930000e+11 -2.024697e-01 -6.087261e-01
1.940000e+11 -2.544782e-01 -5.917497e-01
1.950000e+11 -3.057853e-01 -5.693489e-01
1.960000e+11 -3.564535e-01 -5.397261e-01
1.970000e+11 -4.048409e-01 -5.007172e-01
1.980000e+11 -4.475170e-01 -4.510013e-01
1.990000e+11 -4.799360e-01 -3.912057e-01
2.000000e+11 -4.977021e-01 -3.244709e-01
2.010000e+11 -4.980263e-01 -2.562022e-01
2.020000e+11 -4.808780e-01 -1.930057e-01
2.030000e+11 -4.494079e-01 -1.410937e-01
2.040000e+11 -4.094433e-01 -1.046345e-01
2.050000e+11 -3.681435e-01 -8.456282e-02
2.060000e+11 -3.321700e-01 -7.824589e-02
2.070000e+11 -3.058835e-01 -8.016484e-02
2.080000e+11 -2.901108e-01 -8.348342e-02
2.090000e+11 -2.818976e-01 -8.209738e-02
2.100000e+11 -2.753964e-01 -7.257405e-02
2.110000e+11 -2.636956e-01 -5.537283e-02
2.120000e+11 -2.410766e-01 -3.492273e-02
2.130000e+11 -2.050208e-01 -1.847761e-02
2.140000e+11 -1.573471e-01 -1.405370e-02
2.150000e+11 -1.041204e-01 -2.803540e-02
2.160000e+11 -5.433185e-02 -6.312757e-02
2.170000e+11 -1.768677e-02 -1.172323e-01
2.180000e+11 -2.076567e-03 -1.835852e-01
2.190000e+11 -1.140946e-02 -2.521661e-01
2.200000e+11 -4.441209e-02 -3.120558e-01
2.210000e+11 -9.478376e-02 -3.541253e-01
2.220000e+11 -1.527109e-01 -3.733026e-01
2.230000e+11 -2.073332e-01 -3.697532e-01
2.240000e+11 -2.494460e-01 -3.486344e-01
2.250000e+11 -2.736552e-01 -3.185305e-01
2.260000e+11 -2.794032e-01 -2.890749e-01
2.270000e+11 -2.706523e-01 -2.684709e-01
2.280000e+11 -2.544156e-01 -2.615954e-01
2.290000e+11 -2.386214e-01 -2.691492e-01
2.300000e+11 -2.299428e-01 -2.880014e-01
2.310000e+11 -2.321890e-01 -3.125425e-01
2.320000e+11 -2.456720e-01 -3.365895e-01
2.330000e+11 -2.676610e-01 -3.552469e-01
2.340000e+11 -2.937030e-01 -3.661631e-01
2.350000e+11 -3.193284e-01 -3.698415e-01
2.360000e+11 -3.415614e-01 -3.689860e-01
2.370000e+11 -3.597615e-01 -3.671773e-01
2.380000e+11 -3.755696e-01 -3.673761e-01
2.390000e+11 -3.920453e-01 -3.707672e-01
2.400000e+11 -4.123388e-01 -3.763212e-01
2.410000e+11 -4.383834e-01 -3.811891e-01
2.420000e+11 -4.700663e-01 -3.817609e-01
2.430000e+11 -5.051637e-01 -3.749952e-01
2.440000e+11 -5.400493e-01 -3.595359e-01
2.450000e+11 -5.709138e-01 -3.362130e-01
2.460000e+11 -5.950487e-01 -3.077514e-01
2.470000e+11 -6.117326e-01 -2.777913e-01
2.480000e+11 -6.223957e-01 -2.495680e-01
2.490000e+11 -6.299915e-01 -2.247186e-01
2.500000e+11 -6.377753e-01 -2.026465e-01
2.510000e+11 -6.478971e-01 -1.806957e-01
2.520000e+11 -6.602995e-01 -1.551222e-01
2.530000e+11 -6.723297e-01 -1.225733e-01
2.540000e+11 -6.792545e-01 -8.160010e-02
2.550000e+11 -6.755706e-01 -3.368884e-02
2.560000e+11 -6.567329e-01 1.656300e-02
2.570000e+11 -6.207735e-01 6.223629e-02
2.580000e+11 -5.693087e-01 9.565258e-02
2.590000e+11 -5.076097e-01 1.102786e-01
2.600000e+11 -4.436905e-01 1.024405e-01
2.610000e+11 -3.866440e-01 7.237331e-02
2.620000e+11 -3.446640e-01 2.431722e-02
2.630000e+11 -3.232714e-01 -3.436381e-02
2.640000e+11 -3.241993e-01 -9.480674e-02
2.650000e+11 -3.452123e-01 -1.485888e-01
2.660000e+11 -3.808830e-01 -1.894750e-01
2.670000e+11 -4.240894e-01 -2.145291e-01
2.680000e+11 -4.678051e-01 -2.243253e-01
2.690000e+11 -5.066848e-01 -2.222632e-01
2.700000e+11 -5.380315e-01 -2.132432e-01
2.710000e+11 -5.619402e-01 -2.021310e-01
2.720000e+11 -5.806721e-01 -1.924611e-01
2.730000e+11 -5.975368e-01 -1.857114e-01
2.740000e+11 -6.156609e-01 -1.812702e-01
2.750000e+11 -6.370040e-01 -1.770040e-01
2.760000e+11 -6.618599e-01 -1.701833e-01
2.770000e+11 -6.889148e-01 -1.584580e-01
2.780000e+11 -7.157761e-01 -1.406018e-01
2.790000e+11 -7.397627e-01 -1.168424e-01
2.800000e+11 -7.587006e-01 -8.872886e-02
